<Qucs Dataset 1.0.7>
<indep frequency 21>
  +1.00000000000000000000e+08
  +1.20254960379683479667e+08
  +1.44612554959192454815e+08
  +1.73903770670224875212e+08
  +2.09127910518254548311e+08
  +2.51486685936586916447e+08
  +3.02425214533221662045e+08
  +3.63681321915098428726e+08
  +4.37344829577310800552e+08
  +5.25928851530789494514e+08
  +6.32455532033675074577e+08
  +7.60559149466212511063e+08
  +9.14610103854651689529e+08
  +1.09986401801899337769e+09
  +1.32264103909913468361e+09
  +1.59054145753409862518e+09
  +1.91270499958007073402e+09
  +2.30012263942523908615e+09
  +2.76601156872495174408e+09
  +3.32626611606765174866e+09
  +3.99999999999999094009e+09
</indep>
<dep S[1,1] frequency>
  -1.99122003135675240681e-04-j9.80603618001972543450e-04
  -4.15404820366466892567e-04-j1.68944985706800943071e-03
  -8.65783405996557731132e-04-j2.89857253524285207735e-03
  -1.80185904277618130775e-03-j4.94201503228938743284e-03
  -3.74193060486260886677e-03-j8.34651024268466545930e-03
  -7.74571914029512087474e-03-j1.38912380144340097399e-02
  -1.59538189549491560282e-02-j2.25845114694193938032e-02
  -3.25994572084969125303e-02-j3.52973204820884595145e-02
  -6.57127352748373694258e-02-j5.12935029521756902238e-02
  -1.29122848064259276857e-01-j6.36509390232295330092e-02
  -2.40602249792876449197e-01-j4.75542829327001148609e-02
  -3.98522460848594162197e-01+j5.78314039235230947789e-02
  -5.13548889604273917087e-01+j3.24792749362593724527e-01
  -4.17478652208068790053e-01+j6.81711140647519142632e-01
  -1.20722289849076222512e-01+j9.09964171369174956716e-01
  +1.97240733755600639032e-01+j9.50223481489251842191e-01
  +4.44240674931022705429e-01+j8.84667128795148638432e-01
  +6.17792438279304301219e-01+j7.82064386412760881306e-01
  +7.36941650679389548273e-01+j6.74306307333109700153e-01
  +8.18627825465702230190e-01+j5.73681679332623484235e-01
  +8.74784992373529912690e-01+j4.84259363012539412185e-01
</dep>
<dep S[1,2] frequency>
  +9.79999130152703123997e-01-j1.98999255443123357345e-01
  +9.71074710790653883308e-01-j2.38769510743863599966e-01
  +9.58165882236484800494e-01-j2.86197468217891770603e-01
  +9.39489297293494063368e-01-j3.42537866610958918745e-01
  +9.12455173001085806384e-01-j4.09074432085011985283e-01
  +8.73288632593044455987e-01-j4.86943530119454903726e-01
  +8.16454271814729515278e-01-j5.76747637652656575113e-01
  +7.33775332796064660990e-01-j6.77691032504135093539e-01
  +6.13170277222783277615e-01-j7.85539957041097691715e-01
  +4.37541199550077253289e-01-j8.87599879881421527372e-01
  +1.87974016022347506505e-01-j9.51059891315890526542e-01
  -1.31451341936921234366e-01-j9.05845418171554062070e-01
  -4.24521872057074256546e-01-j6.71236462130046174224e-01
  -5.12372891574851330176e-01-j3.13776219058770511339e-01
  -3.93279892867472502527e-01-j5.21752951515921797876e-02
  -2.36153665436917847842e-01+j4.90191235611756662149e-02
  -1.26427094498842679249e-01+j6.34860909393406280810e-02
  -6.42678849354428732843e-02+j5.07684712756704265013e-02
  -3.18639696989532344995e-02+j3.48237680291258386300e-02
  -1.55885151913566742665e-02+j2.22443782903870498902e-02
  -7.56663654391095865520e-03+j1.36686672410029023267e-02
</dep>
<dep S[2,1] frequency>
  +9.79999130152703123997e-01-j1.98999255443123357345e-01
  +9.71074710790653883308e-01-j2.38769510743863599966e-01
  +9.58165882236484800494e-01-j2.86197468217891770603e-01
  +9.39489297293494063368e-01-j3.42537866610958918745e-01
  +9.12455173001085806384e-01-j4.09074432085011985283e-01
  +8.73288632593044455987e-01-j4.86943530119454903726e-01
  +8.16454271814729515278e-01-j5.76747637652656575113e-01
  +7.33775332796064660990e-01-j6.77691032504135093539e-01
  +6.13170277222783277615e-01-j7.85539957041097691715e-01
  +4.37541199550077253289e-01-j8.87599879881421527372e-01
  +1.87974016022347506505e-01-j9.51059891315890526542e-01
  -1.31451341936921234366e-01-j9.05845418171554062070e-01
  -4.24521872057074256546e-01-j6.71236462130046174224e-01
  -5.12372891574851330176e-01-j3.13776219058770511339e-01
  -3.93279892867472502527e-01-j5.21752951515921797876e-02
  -2.36153665436917847842e-01+j4.90191235611756662149e-02
  -1.26427094498842679249e-01+j6.34860909393406280810e-02
  -6.42678849354428732843e-02+j5.07684712756704265013e-02
  -3.18639696989532344995e-02+j3.48237680291258386300e-02
  -1.55885151913566742665e-02+j2.22443782903870498902e-02
  -7.56663654391095865520e-03+j1.36686672410029023267e-02
</dep>
<dep S[2,2] frequency>
  -1.99122003135676975405e-04-j9.80603618001979482344e-04
  -4.15404820366479469312e-04-j1.68944985706802330849e-03
  -8.65783405996575078367e-04-j2.89857253524290758850e-03
  -1.80185904277619518554e-03-j4.94201503228942906620e-03
  -3.74193060486261580566e-03-j8.34651024268459607036e-03
  -7.74571914029513128308e-03-j1.38912380144340374954e-02
  -1.59538189549492046004e-02-j2.25845114694194493143e-02
  -3.25994572084969402859e-02-j3.52973204820885289035e-02
  -6.57127352748374526925e-02-j5.12935029521756347126e-02
  -1.29122848064259221346e-01-j6.36509390232295468870e-02
  -2.40602249792876532464e-01-j4.75542829327000871054e-02
  -3.98522460848594106686e-01+j5.78314039235230392677e-02
  -5.13548889604273917087e-01+j3.24792749362593724527e-01
  -4.17478652208068790053e-01+j6.81711140647519142632e-01
  -1.20722289849076236390e-01+j9.09964171369174845694e-01
  +1.97240733755600666788e-01+j9.50223481489251842191e-01
  +4.44240674931022760941e-01+j8.84667128795148638432e-01
  +6.17792438279304412241e-01+j7.82064386412760992329e-01
  +7.36941650679389548273e-01+j6.74306307333109811175e-01
  +8.18627825465702230190e-01+j5.73681679332623373213e-01
  +8.74784992373529912690e-01+j4.84259363012539412185e-01
</dep>
