! Created with skrf 1.11.0 (http://scikit-rf.org).
# Hz S RI R 50.0 
!freq ReS11 ImS11 ReS21 ImS21 ReS12 ImS12 ReS22 ImS22
10000000.0 -0.005502194098364345 -0.03700055667781603 0.993990428734112 -0.10287717069696148 0.993990428734112 -0.10287717069696148 -0.002192314376645061 -0.03734312643631098
10062339.588403216 -0.0055708305321375395 -0.037226761229502206 0.9939153092455584 -0.1035156613409284 0.9939153092455584 -0.1035156613409284 -0.002219806399514703 -0.03757576830890938
10125067.799234658 -0.005640320893850235 -0.03745429216195724 0.9938392512930474 -0.10415807874637364 0.9938392512930474 -0.10415807874637364 -0.002247644093869862 -0.037809857407376544
10188187.055150552 -0.005710675750113798 -0.0376831561697691 0.9937622431659313 -0.10480444638171788 0.9937622431659311 -0.10480444638171785 -0.0022758318288117856 -0.03804540269106258
10251699.793909857 -0.005781905796835758 -0.0379133599597157 0.9936842730077798 -0.10545478784257056 0.9936842730077801 -0.10545478784257059 -0.0023043740292271178 -0.038282413173830625
10315608.468468422 -0.005854021860764361 -0.038144910250287344 0.9936053288145769 -0.10610912685216035 0.9936053288145769 -0.10610912685216035 -0.00233327517651414 -0.03852089792436629
10379915.547073727 -0.0059270349010510795 -0.03837781377119598 0.9935253984328909 -0.10676748726176147 0.9935253984328909 -0.10676748726176147 -0.002362539809318424 -0.038760866066488535
10444623.513360197 -0.006000956010830071 -0.03861207726287067 0.9934444695580262 -0.10742989305111521 0.9934444695580261 -0.1074298930511152 -0.002392172524279018 -0.03900232677946145
10509734.866445139 -0.0060757964188166095 -0.03884770747593947 0.9933625297321492 -0.1080963683288476 0.9933625297321492 -0.1080963683288476 -0.0024221779767836563 -0.03924528929830754
10575252.12102525 -0.006151567490922911 -0.03908471117069681 0.9932795663423931 -0.1087669373328816 0.9932795663423931 -0.1087669373328816 -0.0024525608817346743 -0.0394897629141219
10641177.807473743 -0.00622828073189181 -0.039323095116556815 0.9931955666189396 -0.10944162443084521 0.9931955666189396 -0.10944162443084521 -0.002483326014325716 -0.03973575697438772
10707514.471938077 -0.006305947786949452 -0.03956286609149153 0.9931105176330755 -0.11012045412047368 0.9931105176330757 -0.11012045412047371 -0.0025144782108282022 -0.03998328088329287
10774264.676438287 -0.006384580443476379 -0.03980403088145438 0.993024406295228 -0.11080345103000726 0.993024406295228 -0.11080345103000726 -0.0025460223693886236 -0.04023234410204764
10841430.99896591 -0.006464190632696548 -0.040046596279787926 0.9929372193529724 -0.11149063991858256 0.9929372193529723 -0.11149063991858255 -0.0025779634508373466 -0.04048295614920325
10909016.03358365 -0.006544790431387194 -0.0402905690866167 0.9928489433890205 -0.11218204567662035 0.9928489433890204 -0.11218204567662034 -0.002610306479506682 -0.040735126600972484
10977022.390525417 -0.006626392063605069 -0.040535956108222984 0.9927595648191796 -0.11287769332620444 0.9927595648191796 -0.11287769332620444 -0.0026430565440623065 -0.040988865091549906
11045452.69629724 -0.006709007902434038 -0.04078276415640703 0.9926690698902895 -0.11357760802145725 0.9926690698902894 -0.11357760802145724 -0.002676218798344224 -0.04124418131343413
11114309.593778675 -0.006792650471751757 -0.041031000047830675 0.9925774446781324 -0.11428181504890814 0.9925774446781322 -0.11428181504890812 -0.002709798462219461 -0.04150108501775132
11183595.742324881 -0.006877332448014965 -0.04128067060334342 0.9924846750853195 -0.11499033982785539 0.9924846750853195 -0.11499033982785539 -0.002743800822447186 -0.04175958601457872
11253313.81786933 -0.006963066662065646 -0.04153178264729177 0.9923907468391501 -0.11570320791072168 0.9923907468391501 -0.11570320791072168 -0.002778231233554708 -0.04201969417327019
11323466.513027148 -0.007049866100956843 -0.04178434300681047 0.992295645489445 -0.11642044498340265 0.9922956454894449 -0.11642044498340264 -0.0028130951187256233 -0.04228141942278209
11394056.53719912 -0.007137743909798477 -0.042038358511096045 0.9921993564063536 -0.11714207686560864 0.9921993564063536 -0.11714207686560864 -0.0028483979707003178 -0.042544771752000464
11465086.616676314 -0.007226713393623522 -0.04229383599066166 0.9921018647781348 -0.11786812951119918 0.992101864778135 -0.11786812951119921 -0.0028841453526886815 -0.04280976121006901
11536559.494745394 -0.007316788019275031 -0.042550782276573364 0.9920031556089097 -0.11859862900850968 0.9920031556089096 -0.11859862900850966 -0.002920342899294972 -0.04307639790671795
11608477.931794558 -0.007407981417313877 -0.04280920419966724 0.9919032137163876 -0.11933360158067097 0.9919032137163875 -0.11933360158067095 -0.0029569963174554095 -0.04334469201259399
11680844.705420146 -0.007500307383946745 -0.04306910858974679 0.991802023729565 -0.12007307358592025 0.9918020237295653 -0.12007307358592027 -0.002994111387389115 -0.043614653759590866
11753662.610533921 -0.007593779882976242 -0.04333050227476074 0.9916995700863962 -0.12081707151790465 0.9916995700863962 -0.12081707151790465 -0.0030316939635611872 -0.04388629344118101
11826934.459471015 -0.007688413047771206 -0.04359339207996015 0.991595837031434 -0.12156562200597566 0.991595837031434 -0.12156562200597566 -0.003069749975659918 -0.04415962141274772
11900663.082098538 -0.007784221183259686 -0.04385778482703505 0.9914908086134434 -0.12231875181547518 0.9914908086134433 -0.12231875181547516 -0.003108285429586326 -0.0444346480919185
11974851.325924875 -0.007881218767942429 -0.04412368733322991 0.9913844686829874 -0.12307648784801282 0.9913844686829874 -0.12307648784801282 -0.003147306408458357 -0.04471138395889887
12049502.05620966 -0.0079794204559292 -0.04439110641043737 0.9912768008899806 -0.12383885714173373 0.9912768008899806 -0.12383885714173373 -0.003186819073627894 -0.04498983955680701
12124618.15607444 -0.008078841078995931 -0.044660048864270156 0.9911677886812148 -0.12460588687157713 0.9911677886812148 -0.12460588687157713 -0.0032268296657129865 -0.04527002549200901
12200202.526614023 -0.008179495648665665 -0.04493052149311045 0.9910574152978547 -0.12537760434952494 0.9910574152978547 -0.12537760434952494 -0.0032673445056426585 -0.045551952434454965
12276258.087008521 -0.008281399358310943 -0.04520253108713641 0.9909456637729033 -0.12615403702484085 0.990945663772903 -0.12615403702484082 -0.0033083699957171496 -0.045835631118015654
12352787.774636095 -0.008384567585278415 -0.04547608442732529 0.9908325169286345 -0.12693521248429818 0.9908325169286345 -0.12693521248429818 -0.003349912620683043 -0.046121072340819524
12429794.545186404 -0.008489015893037057 -0.04575118828443295 0.9907179573739981 -0.12772115845239834 0.9907179573739981 -0.12772115845239834 -0.0033919789488225448 -0.04640828696559069
12507281.372774748 -0.00859476003334987 -0.04602784941794879 0.990601967501991 -0.12851190279157762 0.9906019675019909 -0.1285119027915776 -0.0034345756330572083 -0.04669728591998733
12585251.250056945 -0.008701815948466494 -0.0463060745750261 0.9904845294869964 -0.1293074735024027 0.9904845294869963 -0.12930747350240268 -0.003477709412069132 -0.04698808019694005
12663707.18834488 -0.008810199773341966 -0.046585870489387116 0.990365625282092 -0.13010789872375506 0.990365625282092 -0.13010789872375506 -0.003521387111434985 -0.047280680854991534
12742652.217722906 -0.008919927837876809 -0.04686724388020262 0.9902452366163255 -0.13091320673300408 0.9902452366163255 -0.13091320673300408 -0.0035656156447780056 -0.04757509901863614
12822089.387164721 -0.009031016669182764 -0.04715020145094456 0.9901233449919565 -0.13172342594616634 0.9901233449919568 -0.13172342594616637 -0.0036104020149337656 -0.04787134587865975
12902021.76465123 -0.009143482993870354 -0.04743474988821257 0.989999931681666 -0.132538584918054 0.989999931681666 -0.132538584918054 -0.0036557533151344627 -0.048169432692480016
12982452.437288998 -0.009257343740362347 -0.047720895860532964 0.9898749777257304 -0.1333587123424097 0.9898749777257303 -0.13335871234240967 -0.003701676730207815 -0.048469370784487154
13063384.511429489 -0.009372616041230629 -0.04800864601712973 0.9897484639291643 -0.1341838370520285 0.9897484639291642 -0.13418383705202847 -0.0037481795377934395 -0.04877117154638451
13144821.112789033 -0.009489317235557973 -0.04829800698666748 0.9896203708588258 -0.13501398801886627 0.9896203708588258 -0.13501398801886627 -0.003795269109575824 -0.049074846437529865
13226765.386569548 -0.009607464871323948 -0.04858898537596507 0.9894906788404897 -0.13584919435413415 0.9894906788404895 -0.13584919435413412 -0.003842952912534899 -0.04938040698527616
13309220.497580012 -0.009727076707816201 -0.04888158776867989 0.9893593679558826 -0.13668948530837854 0.9893593679558826 -0.13668948530837854 -0.003891238510213555 -0.04968786478531279
13392189.630358689 -0.009848170718066372 -0.04917582072396212 0.9892264180396854 -0.13753489027154703 0.9892264180396854 -0.13753489027154703 -0.003940133564003296 -0.04999723150200676
13475675.989296125 -0.0099707650913116 -0.04947169077507807 0.9890918086764962 -0.13838543877303877 0.9890918086764962 -0.13838543877303877 -0.003989645834447381 -0.050308518868743685
13559682.798758907 -0.010094878235481561 -0.04976920442800257 0.9889555191977609 -0.13924116048173993 0.9889555191977609 -0.13924116048173993 -0.004039783182562175 -0.050621738688269066
13644213.303214185 -0.01022052877970989 -0.05006836815997912 0.9888175286786629 -0.14010208520604275 0.9888175286786631 -0.14010208520604278 -0.004090553571178033 -0.05093690283302874
13729270.76735499 -0.01034773557687316 -0.05036918841804772 0.9886778159349785 -0.14096824289384924 0.9886778159349785 -0.14096824289384924 -0.004141965066297295 -0.05125402324550973
13814858.47622631 -0.010476517706154672 -0.05067167161753944 0.9885363595198915 -0.1418396636325571 0.9885363595198914 -0.14183966363255707 -0.004194025838472358 -0.05157311193858047
13900979.73535197 -0.010606894475634256 -0.05097582414053727 0.988393137720773 -0.14271637764902978 0.988393137720773 -0.14271637764902978 -0.004246744164203259 -0.05189418099583063
13987637.870862298 -0.010738885424904957 -0.051281652334302534 0.9882481285559214 -0.14359841530954845 0.9882481285559214 -0.14359841530954845 -0.00430012842735424 -0.05221724257191079
14074836.229622576 -0.010872510327716045 -0.051589162509666026 0.9881013097712606 -0.14448580711974582 0.9881013097712605 -0.1444858071197458 -0.004354187120590433 -0.05254230889287135
14162578.179362308 -0.011007789194641996 -0.05189836093938336 0.9879526588370031 -0.14537858372452186 0.987952658837003 -0.14537858372452184 -0.004408928846835281 -0.052869392256500676
14250867.10880529 -0.0111447422757796 -0.0522092538564541 0.9878021529442708 -0.14627677590794125 0.9878021529442708 -0.14627677590794125 -0.004464362320747453 -0.053198505032663344
14339706.427800473 -0.011283390063470684 -0.05252184745240315 0.9876497690016751 -0.14718041459310993 0.987649769001675 -0.1471804145931099 -0.004520496370219571 -0.053529659663636646
14429099.567453673 -0.01142375329505258 -0.05283614787552473 0.9874954836318574 -0.1480895308420336 0.9874954836318574 -0.1480895308420336 -0.004577339937897822 -0.053862868664447
14519049.980260082 -0.011565852955636209 -0.053152161229087384 0.987339273167987 -0.14900415585545485 0.987339273167987 -0.14900415585545485 -0.004634902082722572 -0.05419814462320526
14609561.140237592 -0.011709710280910878 -0.053469893569499445 0.9871811136502194 -0.14992432097266956 0.9871811136502194 -0.14992432097266956 -0.004693191981491402 -0.05453550020144065
14700636.543060994 -0.011855346759977153 -0.053789350904434916 0.9870209808221094 -0.1508500576713225 0.9870209808221094 -0.1508500576713225 -0.00475221893044417 -0.05487494813443438
14792279.706196932 -0.012002784138207608 -0.05411053919091756 0.9868588501269842 -0.15178139756718034 0.9868588501269842 -0.15178139756718034 -0.00481199234686999 -0.055216501231551224
14884494.169039886 -0.01215204442013538 -0.05443346433336411 0.9866946967042712 -0.1527183724138836 0.9866946967042712 -0.1527183724138836 -0.004872521770737646 -0.05556017237657074
14977283.493048687 -0.012303149872370103 -0.054758132181584096 0.9865284953857849 -0.1536610141026734 0.9865284953857848 -0.15366101410267338 -0.0049338168663492265 -0.055905974528015906
15070651.261884179 -0.012456123026543671 -0.05508454852873693 0.9863602206919655 -0.15460935466209674 0.9863602206919657 -0.15460935466209677 -0.004995887424016248 -0.0562539207194816
15164601.081547605 -0.0126109866822826 -0.05541271910924448 0.9861898468280782 -0.1555634262576872 0.9861898468280782 -0.1555634262576872 -0.005058743361761042 -0.0566040240599604
15259136.580519866 -0.012767763910209673 -0.055742649596658915 0.9860173476803626 -0.1565232611916203 0.9860173476803629 -0.15652326119162033 -0.00512239472704176 -0.05695629773416743
15354261.409901673 -0.012926478054975004 -0.05607434560148413 0.9858426968121392 -0.15748889190234455 0.985842696812139 -0.15748889190234452 -0.005186851698501147 -0.05731075500286301
15449979.243554536 -0.013087152738314048 -0.05640781266895081 0.9856658674598688 -0.1584603509641857 0.9856658674598691 -0.15846035096418573 -0.005252124587742014 -0.05766740920317338
15546293.778242676 -0.013249811862135925 -0.05674305627674376 0.9854868325291667 -0.1594376710869256 0.9854868325291666 -0.15943767108692558 -0.005318223841126851 -0.058026273748909445
15643208.733775787 -0.013414479611640745 -0.05708008183268039 0.985305564590767 -0.16042088511535282 0.985305564590767 -0.16042088511535282 -0.005385160041603036 -0.05838736213088357
15740727.853152703 -0.013581180458464669 -0.05741889467233994 0.9851220358764431 -0.16141002602878618 0.9851220358764431 -0.16141002602878618 -0.0054529439105555876 -0.05875068791722345
15838854.90270596 -0.01374993916385625 -0.05775950005664218 0.9849362182748761 -0.16240512694056988 0.984936218274876 -0.16240512694056985 -0.005521586309684604 -0.05911626475368433
15937593.672247253 -0.013920780781880472 -0.058101903169374615 0.984748083327478 -0.1634062210975392 0.984748083327478 -0.1634062210975392 -0.005591098242911084 -0.059484106363958046
16036947.97521381 -0.014093730662652704 -0.05844610911466719 0.9845576022241634 -0.16441334187945628 0.9845576022241634 -0.16441334187945628 -0.005661490858309735 -0.05985422654997937
16136921.648815671 -0.014268814455602791 -0.0587921229144139 0.9843647457990728 -0.16542652279841624 0.9843647457990728 -0.16542652279841624 -0.005732775450069096 -0.060226639192230015
16237518.55418388 -0.01444605811276775 -0.05913994950563982 0.9841694845262446 -0.16644579749822122 0.9841694845262446 -0.16644579749822122 -0.00580496346048082 -0.06060135825003902
16338742.57651962 -0.014625487892114998 -0.0594895937378124 0.9839717885152383 -0.1674711997537227 0.9839717885152381 -0.16747119975372268 -0.005878066481956712 -0.06097839776188013
16440597.62524425 -0.01480713036089509 -0.05984106037009682 0.9837716275067028 -0.16850276347013124 0.9837716275067028 -0.16850276347013124 -0.005952096259075385 -0.0613577718456661
16543087.634150311 -0.014991012399024638 -0.06019435406855342 0.9835689708678983 -0.16954052268229317 0.9835689708678983 -0.16954052268229317 -0.006027064690658062 -0.06173949469903934
16646216.561553435 -0.015177161202497682 -0.06054947940327637 0.98336378758816 -0.1705845115539319 0.9833637875881602 -0.17058451155393192 -0.00610298383187572 -0.0621235805996584
16749988.390445238 -0.015365604286829988 -0.06090644084547287 0.9831560462743129 -0.17163476437685532 0.9831560462743129 -0.17163476437685532 -0.006179865896384079 -0.06251004390548165
16854407.128647137 -0.01555636949052989 -0.0612652427644814 0.9829457151460309 -0.1726913155701269 0.9829457151460308 -0.17269131557012687 -0.006257723258492812 -0.06289889905504585
16959476.808965143 -0.015749484978602235 -0.06162588942472771 0.9827327620311439 -0.1737541996792 0.9827327620311439 -0.1737541996792 -0.006336568455363313 -0.06329016056774131
17065201.489345618 -0.015944979246080064 -0.06198838498261776 0.9825171543608878 -0.1748234513750151 0.9825171543608878 -0.1748234513750151 -0.00641641418924065 -0.06368384304408196
17171585.25303199 -0.016142881121588584 -0.062352733483366236 0.9822988591651017 -0.17589910545305779 0.9822988591651017 -0.17589910545305779 -0.006497273329715905 -0.06407996116597144
17278632.20872243 -0.016343219770937122 -0.06271893885775945 0.9820778430673683 -0.17698119683237826 0.9820778430673682 -0.17698119683237823 -0.0065791589160234965 -0.06447852969696369
17386346.490728658 -0.01654602470074318 -0.06308700491885168 0.9818540722800962 -0.17806976055457133 0.9818540722800962 -0.17806976055457133 -0.006662084159370446 -0.06487956348251955
17494732.25913543 -0.01675132576208552 -0.06345693535859266 0.9816275125995503 -0.1791648317827129 0.9816275125995503 -0.1791648317827129 -0.006746062445299966 -0.06528307745025683
17603793.699961327 -0.01695915315418705 -0.06382873374438647 0.9813981294008179 -0.18026644580025653 0.9813981294008179 -0.18026644580025653 -0.006831107336090533 -0.06568908661019549
17713535.025320396 -0.017169537428129735 -0.0642024035155792 0.9811658876327232 -0.1813746380098865 0.981165887632723 -0.18137463800988649 -0.006917232573187922 -0.06609760605499743
17823960.473584834 -0.01738250949059712 -0.06457794797987537 0.9809307518126792 -0.18248944393232722 0.9809307518126792 -0.18248944393232722 -0.007004452079675419 -0.06650865096020005
17935074.30954868 -0.017598100607648704 -0.06495537030968002 0.9806926860214813 -0.18361089920510626 0.9806926860214813 -0.18361089920510626 -0.007092779962778133 -0.06692223658444328
18046880.824592516 -0.017816342408523835 -0.06533467353836687 0.980451653898042 -0.18473903958127347 0.9804516538980422 -0.18473903958127352 -0.007182230516404815 -0.06733837826969079
18159384.336849213 -0.018037266889475035 -0.06571586055647001 0.9802076186340638 -0.18587390092807105 0.9802076186340636 -0.185873900928071 -0.007272818223727193 -0.06775709144144386
18272589.191370707 -0.01826090641763174 -0.06609893410779814 0.9799605429686516 -0.18701551922555698 0.9799605429686519 -0.18701551922555704 -0.007364557759796836 -0.06817839160894865
18386499.760295816 -0.018487293734893575 -0.06648389678547018 0.9797103891828652 -0.18816393056517897 0.9797103891828652 -0.18816393056517897 -0.007457463994200733 -0.06860229436539632
18501120.44301908 -0.018716461961853705 -0.0668707510278697 0.9794571190942056 -0.18931917114829713 0.9794571190942055 -0.1893191711482971 -0.007551551993755297 -0.069028815388115
18616455.666360695 -0.018948444601750568 -0.06725949911451838 0.979200694051043 -0.190481277284657 0.9792006940510429 -0.19048127728465697 -0.007646837025241554 -0.06945797043875458
18732509.884737458 -0.01918327554445057 -0.06765014316186527 0.9789410749269777 -0.19165028539080803 0.9789410749269776 -0.191650285390808 -0.007743334558178802 -0.06988977536346282
18849287.580334824 -0.019420989070458812 -0.06804268511899159 0.9786782221151401 -0.19282623198847038 0.9786782221151401 -0.19282623198847038 -0.007841060267640754 -0.07032424609305346
18966793.263280015 -0.019661619854959726 -0.06843712676322851 0.9784120955224228 -0.19400915370284474 0.9784120955224228 -0.19400915370284474 -0.00794003003711219 -0.07076139864316498
19085031.47181619 -0.019905202971885853 -0.06883346969568752 0.9781426545636507 -0.19519908726086777 0.9781426545636506 -0.19519908726086774 -0.008040259961388898 -0.07120124911441085
19204006.77247773 -0.020151773898016 -0.06923171533670004 0.9778698581556815 -0.1963960694894086 0.9778698581556815 -0.1963960694894086 -0.008141766349519712 -0.07164381369251958
19323723.760266613 -0.020401368517101906 -0.06963186492116663 0.9775936647114444 -0.19760013731340795 0.9775936647114444 -0.19760013731340795 -0.008244565727792339 -0.07208910864846578
19444187.05882986 -0.02065402312402249 -0.07003391949381231 0.9773140321339069 -0.1988113277539564 0.9773140321339071 -0.19881132775395643 -0.008348674842764015 -0.07253715033859022
