! Created with skrf 1.11.0 (http://scikit-rf.org).
# Hz S RI R 50.0 
!freq ReS11 ImS11 ReS21 ImS21 ReS12 ImS12 ReS22 ImS22
10000000.0 0.00030552613429737246 0.00877105803426733 0.9993275806641218 -0.03560002413951672 0.9993275806641216 -0.03560002413951671 0.0003193762527278466 0.008770564637947642
10062339.588403216 0.000309344763919502 0.008825622413139455 0.999319172609392 -0.035821836219238255 0.9993191726093918 -0.03582183621923825 0.0003233679985625244 0.008825119732886324
10125067.799234658 0.00031321108893150315 0.008880524799266938 0.9993106594408963 -0.036045028865356474 0.9993106594408963 -0.036045028865356474 0.00032740960229207556 0.008880012660404923
10188187.055150552 0.000317125704254994 0.008935767259447022 0.9993020398451045 -0.036269610642874726 0.9993020398451045 -0.036269610642874726 0.00033150168581785845 0.008935245484014665
10251699.793909857 0.0003210892122119923 0.008991351872603515 0.9992933124920867 -0.036495590169412194 0.9992933124920866 -0.03649559016941219 0.00033564487877750976 0.008990820279291545
10315608.468468422 0.0003251022226162594 0.009047280729848242 0.9992844760353075 -0.036722976115517295 0.9992844760353075 -0.036722976115517295 0.0003398398186408569 0.009046739133936575
10379915.547073727 0.00032916535286651067 0.009103555934542503 0.9992755291114211 -0.03695177720498288 0.9992755291114211 -0.03695177720498288 0.00034408715080625304 0.00910300414783613
10444623.513360197 0.00033327922803978364 0.009160179602358647 0.9992664703400591 -0.03718200221516275 0.9992664703400593 -0.037182002215162754 0.0003483875286990629 0.009159617433122257
10509734.866445139 0.0003374444809866525 0.009217153861341844 0.999257298323621 -0.03741365997729034 0.9992572983236212 -0.03741365997729035 0.0003527416138706629 0.009216581114233258
10575252.12102525 0.0003416617524271234 0.009274480851971828 0.9992480116470578 -0.03764675937679874 0.9992480116470578 -0.03764675937679874 0.00035715007609911684 0.00927389732797415
10641177.807473743 0.0003459316910479614 0.009332162727224879 0.9992386088776551 -0.037881309353642534 0.9992386088776549 -0.03788130935364253 0.0003616135934908371 0.00933156822357739
10707514.471938077 0.0003502549536012262 0.009390201652635759 0.9992290885648127 -0.038117318902621405 0.9992290885648126 -0.0381173189026214 0.00036613285258345275 0.0093895959627635
10774264.676438287 0.000354632205004157 0.009448599806359856 0.9992194492398222 -0.03835479707370535 0.9992194492398221 -0.03835479707370534 0.00037070854844980123 0.00944798271980193
10841430.99896591 0.000359064118439407 0.009507359379235322 0.9992096894156407 -0.038593752972361596 0.9992096894156409 -0.0385937529723616 0.00037534138480404243 0.00950673068157176
10909016.03358365 0.0003635513754579381 0.0095664825748454 0.9991998075866636 -0.038834195759883616 0.9991998075866638 -0.03883419575988362 0.00038003207410765635 0.009565842047622753
10977022.390525417 0.00036809466608184123 0.009625971609580659 0.9991898022284919 -0.03907613465372105 0.9991898022284917 -0.03907613465372104 0.00038478133767802687 0.009625319030236112
11045452.69629724 0.000372694688909073 0.009685828712701438 0.9991796717976985 -0.0393195789278122 0.9991796717976985 -0.0393195789278122 0.00038958990579771686 0.009685163854485538
11114309.593778675 0.00037735215121976974 0.009746056126400322 0.999169414731592 -0.039564537912917835 0.9991694147315923 -0.03956453791291784 0.0003944585178247651 0.009745378758298258
11183595.742324881 0.0003820677690828278 0.009806656105864623 0.9991590294479757 -0.039811020996956804 0.9991590294479757 -0.039811020996956804 0.00039938792230535185 0.009805965992516008
11253313.81786933 0.00038684226746465365 0.009867630919338963 0.999148514344905 -0.04005903762534338 0.9991485143449053 -0.04005903762534339 0.0004043788770869688 0.009866927820956096
11323466.513027148 0.000391676380339047 0.009928982848187898 0.9991378678004418 -0.04030859730132643 0.9991378678004418 -0.04030859730132643 0.00040943214943316153 0.009928266520472519
11394056.53719912 0.00039657085079833896 0.009990714186958537 0.9991270881724043 -0.04055970958633023 0.9991270881724043 -0.04055970958633023 0.0004145485161397457 0.009989984381017012
11465086.616676314 0.0004015264311658057 0.010052827243443254 0.9991161737981167 -0.04081238410029713 0.9991161737981167 -0.04081238410029713 0.0004197287636525172 0.010052083705700146
11536559.494745394 0.00040654388310965055 0.010115324338742388 0.9991051229941523 -0.04106663052203193 0.9991051229941523 -0.04106663052203193 0.00042497368818619427 0.010114566810852425
11608477.931794558 0.00041162397775818 0.010178207807326952 0.999093934056076 -0.04132245858954799 0.9990939340560759 -0.041322458589547986 0.00043028409584499363 0.010177436026085333
11680844.705420146 0.0004167674958165838 0.01024147999710141 0.9990826052581828 -0.04157987810041523 0.999082605258183 -0.04157987810041524 0.0004356608027444745 0.010240693694352425
11753662.610533921 0.00042197522768466425 0.010305143269466377 0.9990711348532323 -0.041838898912109714 0.9990711348532323 -0.041838898912109714 0.0004411046351353256 0.010304342172010296
11826934.459471015 0.00042724797357686947 0.010369199999381403 0.9990595210721804 -0.04209953094236518 0.9990595210721803 -0.042099530942365175 0.00044661642952778936 0.010368383828879632
11900663.082098538 0.0004325865436427567 0.01043365257542769 0.9990477621239096 -0.042361784169526295 0.9990477621239096 -0.042361784169526295 0.00045219703281861837 0.010432821048306142
11974851.325924875 0.00043799175809001404 0.0104985033998708 0.9990358561949519 -0.04262566863290364 0.9990358561949516 -0.042625668632903624 0.00045784730241848 0.01049765622722147
12049502.05620966 0.00044346444730778133 0.010563754888723352 0.9990238014492118 -0.042891194433130504 0.9990238014492117 -0.0428911944331305 0.00046356810638209517 0.010562891776203988
12124618.15607444 0.0004490054519921239 0.010629409471807709 0.9990115960276849 -0.04315837173252158 0.9990115960276849 -0.04315837173252158 0.0004693603235393061 0.010628530119539634
12200202.526614023 0.0004546156232735046 0.010695469592818576 0.9989992380481716 -0.04342721075543325 0.9989992380481715 -0.043427210755433245 0.0004752248436272502 0.0106945736952826
12276258.087008521 0.00046029582284483133 0.010761937709385543 0.9989867256049897 -0.04369772178862582 0.9989867256049897 -0.04369772178862582 0.0004811625674251017 0.010761024955315912
12352787.774636095 0.0004660469230913811 0.010828816293135674 0.9989740567686808 -0.04396991518162751 0.9989740567686807 -0.0439699151816275 0.00048717440689013025 0.010827886365411989
12429794.545186404 0.00047186980722260856 0.010896107829755903 0.9989612295857161 -0.04424380134710022 0.9989612295857159 -0.044243801347100216 0.000493261285295085 0.01089516040529304
12507281.372774748 0.00047776536940575507 0.010963814819055387 0.9989482420781949 -0.04451939076120713 0.9989482420781949 -0.04451939076120713 0.0004994241373670415 0.010962849568691395
12585251.250056945 0.00048373451489966716 0.011031939775027885 0.9989350922435434 -0.0447966939639821 0.9989350922435434 -0.0447966939639821 0.0005056639094293359 0.011030956363409663
12663707.18834488 0.0004897781601921096 0.011100485225913835 0.9989217780542056 -0.04507572155970073 0.9989217780542053 -0.04507572155970072 0.0005119815595433302 0.011099483311380765
12742652.217722906 0.0004958972331375615 0.011169453714262605 0.9989082974573337 -0.04535648421725379 0.9989082974573336 -0.04535648421725378 0.0005183780576530931 0.011168432948727946
12822089.387164721 0.0005020926730969204 0.011238847796994307 0.9988946483744737 -0.045638992670521454 0.998894648374474 -0.04563899267052146 0.0005248543857315422 0.011237807825824385
12902021.76465123 0.000508365431078957 0.011308670045461764 0.9988808287012463 -0.045923257718750346 0.9988808287012462 -0.04592325771875034 0.0005314115379283287 0.011307610507352866
12982452.437288998 0.0005147164698835631 0.011378923045512206 0.998866836307024 -0.04620929022693177 0.9988668363070242 -0.04620929022693178 0.0005380505207194009 0.011377843572365185
13063384.511429489 0.0005211467642464389 0.011449609397548861 0.9988526690346055 -0.04649710112618217 0.9988526690346057 -0.046497101126182175 0.0005447723530586656 0.011448509614341365
13144821.112789033 0.0005276573009862368 0.011520731716592396 0.998838324699885 -0.04678670141412502 0.9988383246998849 -0.04678670141412501 0.0005515780665307691 0.011519611241248735
13226765.386569548 0.0005342490791521249 0.011592292632342143 0.9988238010915163 -0.04707810215527478 0.9988238010915163 -0.04707810215527478 0.0005584687055070651 0.011591151075600648
13309220.497580012 0.0005409231101745752 0.011664294789237249 0.9988090959705768 -0.04737131448142272 0.9988090959705767 -0.04737131448142271 0.0005654453273020267 0.011663131754515183
13392189.630358689 0.0005476804180173886 0.011736740846517523 0.9987942070702214 -0.04766634959202423 0.9987942070702214 -0.04766634959202423 0.0005725090023321114 0.01173555592977347
13475675.989296125 0.0005545220393312104 0.011809633478284188 0.9987791320953378 -0.04796321875458839 0.9987791320953376 -0.04796321875458838 0.0005796608142768841 0.011808426267877809
13559682.798758907 0.0005614490236091044 0.01188297537356033 0.9987638687221932 -0.04826193330506903 0.9987638687221932 -0.04826193330506903 0.000586901860241859 0.01188174545010949
13644213.303214185 0.0005684624333447125 0.011956769236351202 0.9987484145980802 -0.0485625046482577 0.9987484145980802 -0.0485625046482577 0.0005942332509225922 0.011955516172586472
13729270.76735499 0.0005755633441909669 0.012031017785704215 0.9987327673409548 -0.048864944258178535 0.9987327673409548 -0.048864944258178535 0.000601656110772088 0.012029741146320567
13814858.47622631 0.0005827528451217652 0.012105723755768799 0.9987169245390739 -0.04916926367848491 0.9987169245390738 -0.049169263678484905 0.0006091715781691679 0.012104423097274542
13900979.73535197 0.0005900320385955685 0.012180889895855817 0.9987008837506235 -0.049475474522857804 0.9987008837506235 -0.049475474522857804 0.0006167808055888651 0.012179564766418738
13987637.870862298 0.0005974020407199066 0.012256518970496923 0.9986846425033477 -0.049783588475406156 0.9986846425033474 -0.04978358847540614 0.0006244849597759355 0.01225516890978745
14074836.229622576 0.0006048639814192922 0.012332613759503442 0.9986681982941678 -0.05009361729106885 0.9986681982941676 -0.05009361729106884 0.000632285221918998 0.01233123829853494
14162578.179362308 0.0006124190046042501 0.012409177058025045 0.9986515485888012 -0.050405572796018656 0.9986515485888012 -0.050405572796018656 0.0006401827878276685 0.012407775718991085
14250867.10880529 0.0006200682683423152 0.012486211676608117 0.9986346908213731 -0.05071946688806802 0.9986346908213731 -0.05071946688806802 0.0006481788681118722 0.012484783972716674
14339706.427800473 0.000627812945031679 0.012563720441253718 0.998617622394024 -0.05103531153707648 0.998617622394024 -0.05103531153707648 0.000656274688362692 0.01256226587655827
14429099.567453673 0.0006356542215761917 0.01264170619347527 0.9986003406765116 -0.051353118785359995 0.9986003406765116 -0.051353118785359995 0.0006644714893361117 0.012640224262702702
14519049.980260082 0.0006435932995634544 0.01272017179035584 0.9985828430058096 -0.05167290074810222 0.9985828430058096 -0.05167290074810222 0.0006727705271379591 0.012718661978731173
14609561.140237592 0.0006516313954436951 0.012799120104605061 0.9985651266856996 -0.05199466961376726 0.9985651266856999 -0.05199466961376727 0.000681173073412393 0.012797581887672814
14700636.543060994 0.0006597697407120143 0.012878554024615676 0.9985471889863601 -0.05231843764451457 0.9985471889863601 -0.05231843764451457 0.0006896804155314232 0.012876986868057924
14792279.706196932 0.0006680095820922902 0.012958476454519578 0.9985290271439472 -0.05264421717661535 0.9985290271439471 -0.05264421717661534 0.0006982938567871897 0.012956879813970597
14884494.169039886 0.0006763521817229059 0.013038890314243637 0.9985106383601737 -0.052972020620871224 0.998510638360174 -0.05297202062087124 0.0007070147165869398 0.013037263635101016
14977283.493048687 0.000684798817345446 0.01311979853956479 0.9984920198018813 -0.053301860463033916 0.9984920198018813 -0.053301860463033916 0.0007158443306495248 0.013118141256797057
15070651.261884179 0.0006933507824948844 0.013201204082164915 0.9984731686006065 -0.05363374926422743 0.9984731686006065 -0.05363374926422743 0.0007247840512050383 0.013199515620115485
15164601.081547605 0.0007020093866930855 0.01328310990968509 0.9984540818521442 -0.05396769966137176 0.9984540818521442 -0.05396769966137176 0.000733835247195764 0.013281389681872624
15259136.580519866 0.0007107759556431032 0.01336551900577939 0.9984347566161014 -0.054303724367608226 0.9984347566161014 -0.054303724367608226 0.0007429993044810138 0.013363766414694295
15354261.409901673 0.0007196518314272021 0.013448434370168292 0.9984151899154508 -0.054641836172727005 0.9984151899154508 -0.054641836172727005 0.0007522776260430156 0.013446648807065479
15449979.243554536 0.0007286383727066499 0.013531859018691207 0.9983953787360739 -0.0549820479435958 0.9983953787360738 -0.05498204794359579 0.000761671632195781 0.013530039863378945
15546293.778242676 0.0007377369549234138 0.013615795983358873 0.9983753200263015 -0.05532437262459089 0.9983753200263017 -0.0553243726245909 0.0007711827607969743 0.013613942603983638
15643208.733775787 0.0007469489705053553 0.013700248312404914 0.998355010696449 -0.055668823238029685 0.998355010696449 -0.055668823238029685 0.0007808124674611603 0.013698360065232259
15740727.853152703 0.0007562758290728012 0.013785219070336823 0.9983344476183421 -0.056015412884604765 0.9983344476183421 -0.056015412884604765 0.0007905622257766346 0.013783295299528082
15838854.90270596 0.0007657189576479729 0.013870711337986459 0.9983136276248415 -0.056364154743820206 0.9983136276248414 -0.0563641547438202 0.0008004335275244333 0.013868751375371267
15937593.672247253 0.0007752798008671704 0.013956728212559747 0.9982925475093585 -0.05671506207442922 0.9982925475093587 -0.05671506207442924 0.0008104278828996418 0.013954731377404321
16036947.97521381 0.0007849598211948112 0.014043272807685853 0.9982712040253655 -0.05706814821487366 0.9982712040253655 -0.05706814821487366 0.0008205468207359857 0.01404123840645686
16136921.648815671 0.0007947604991412912 0.014130348253465605 0.998249593885902 -0.05742342658372533 0.998249593885902 -0.05742342658372533 0.000830791888731792 0.014128275579589723
16237518.55418388 0.0008046833334812464 0.014217957696519205 0.9982277137630712 -0.0577809106801288 0.9982277137630712 -0.0577809106801288 0.000841164653680771 0.014215846030137999
16338742.57651962 0.0008147298414765361 0.014306104300033269 0.9982055602875334 -0.058140614084246124 0.9982055602875334 -0.058140614084246124 0.0008516667017034032 0.014303952907753591
16440597.62524425 0.0008249015591007996 0.014394791243807128 0.9981831300479933 -0.05850255045770332 0.9981831300479931 -0.058502550457703306 0.0008622996384821036 0.01439259937844679
16543087.634150311 0.0008352000412666111 0.014484021724298222 0.9981604195906771 -0.05886673354403807 0.9981604195906771 -0.05886673354403807 0.000873065089499189 0.014481788624626873
16646216.561553435 0.0008456268620560597 0.014573798954666864 0.9981374254188082 -0.05923317716914971 0.9981374254188085 -0.05923317716914973 0.0008839647002769267 0.014571523845142074
16749988.390445238 0.0008561836149529911 0.014664126164820122 0.9981141439920743 -0.05960189524175065 0.9981141439920741 -0.059601895241750635 0.0008950001366214448 0.01466180825531843
16854407.128647137 0.0008668719130787155 0.01475500660145478 0.9980905717260854 -0.059972901753819 0.9980905717260856 -0.059972901753819016 0.0009061730848687621 0.01475264508699773
16959476.808965143 0.0008776933894302897 0.014846443528099542 0.9980667049918305 -0.06034621078105375 0.9980667049918305 -0.06034621078105375 0.0009174852521339318 0.014844037588574582
17065201.489345618 0.0008886496971218259 0.014938440225156273 0.9980425401151231 -0.06072183648333075 0.9980425401151233 -0.060721836483330766 0.0009289383665628597 0.01493598902503243
17171585.25303199 0.000899742509627758 0.01503099998994031 0.9980180733760413 -0.0610997931051607 0.9980180733760413 -0.0610997931051607 0.0009405341775879485 0.015028502677978462
17278632.20872243 0.0009109735210304839 0.01512412613671981 0.9979933010083626 -0.0614800949761487 0.9979933010083626 -0.0614800949761487 0.0009522744561852185 0.015121581845677625
17386346.490728658 0.000922344446269153 0.015217821996754262 0.9979682191989893 -0.06186275651145567 0.9979682191989893 -0.06186275651145567 0.0009641609951362113 0.01521522984308549
17494732.25913543 0.0009338570213926385 0.015312090918331658 0.9979428240873681 -0.06224779221226051 0.9979428240873681 -0.06224779221226051 0.0009761956092916227 0.015309450001879851
17603793.699961327 0.0009455130038152964 0.01540693626680499 0.9979171117649026 -0.06263521666622474 0.9979171117649028 -0.06263521666622475 0.000988380135838257 0.015404245670491465
17713535.025320396 0.0009573141725751002 0.015502361424627454 0.9978910782743591 -0.06302504454795832 0.9978910782743591 -0.06302504454795832 0.001000716434569666 0.015499620214133399
17823960.473584834 0.000969262328594982 0.01559836979138659 0.997864719609263 -0.06341729061948694 0.997864719609263 -0.06341729061948694 0.0010132063881597537 0.015595577014829151
17935074.30954868 0.000981359294948033 0.015694964783837386 0.9978380317132907 -0.06381196973072092 0.9978380317132907 -0.06381196973072092 0.0010258519024387788 0.015692119471439777
18046880.824592516 0.0009936069171246867 0.015792149835934067 0.9978110104796514 -0.06420909681992576 0.9978110104796516 -0.06420909681992577 0.0010386549066736452 0.015789250999689416
18159384.336849213 0.0010060070633033796 0.0158899283988608 0.9977836517504641 -0.0646086869141938 0.997783651750464 -0.06460868691419379 0.0010516173538510953 0.01588697503218969
18272589.191370707 0.0010185616246247778 0.01598830394106113 0.9977559513161237 -0.06501075512991775 0.9977559513161237 -0.06501075512991775 0.0010647412209637802 0.01598529501846274
18386499.760295816 0.0010312725154687644 0.016087279948266177 0.9977279049146622 -0.06541531667326543 0.9977279049146622 -0.06541531667326543 0.0010780285093000674 0.016084214424962898
18501120.44301908 0.0010441416737346097 0.016186859923521462 0.9976995082311009 -0.0658223868406561 0.9976995082311008 -0.06582238684065608 0.0010914812447372275 0.016183736735096793
18616455.666360695 0.001057171061124591 0.016287047387212466 0.9976707568967939 -0.06623198101923806 0.9976707568967937 -0.06623198101923805 0.0011051014780378249 0.016283865449242155
18732509.884737458 0.001070362663430869 0.016387845877088855 0.9976416464887653 -0.0666441146873677 0.9976416464887652 -0.06664411468736768 0.0011188912851495642 0.0163846040847651
18849287.580334824 0.0010837184908254315 0.016489258948287153 0.9976121725290372 -0.06705880341509 0.9976121725290372 -0.06705880341509 0.0011328527675088403 0.016485956176035786
18966793.263280015 0.0010972405781535944 0.0165912901733522 0.9975823304839491 -0.06747606286462031 0.9975823304839491 -0.06747606286462031 0.0011469880523476007 0.01658792527444261
19085031.47181619 0.0011109309852314132 0.01669394314225685 0.9975521157634707 -0.0678959087908275 0.9975521157634707 -0.0678959087908275 0.0011612992930032043 0.016690514948404737
19204006.77247773 0.0011247917971450013 0.016797221462420388 0.997521523720504 -0.0683183570417183 0.997521523720504 -0.0683183570417183 0.0011757886692333737 0.016793728783382898
19323723.760266613 0.0011388251245553448 0.016901128758725275 0.9974905496501785 -0.06874342355892313 0.9974905496501787 -0.06874342355892314 0.0011904583875327359 0.016897570381888695
