! Created with skrf 1.11.0 (http://scikit-rf.org).
# Hz S RI R 50.0 
!freq ReS11 ImS11 ReS21 ImS21 ReS12 ImS12 ReS22 ImS22
10000000.0 0.0009012443376799734 0.018373575886235505 0.9987109302912184 -0.04730832045893819 0.9987109302912186 -0.0473083204589382 0.0008395839221946358 0.018376496702066134
10062339.588403216 0.0009125024642871011 0.01848767946433874 0.9986948193029522 -0.047602845972905504 0.9986948193029521 -0.0476028459729055 0.000850071984019287 0.01849065521676958
10125067.799234658 0.0009239010533416078 0.01860248615417907 0.9986785070977819 -0.04789920016735721 0.9986785070977819 -0.04789920016735721 0.0008606909051399821 0.018605517876119415
10188187.055150552 0.0009354418530180172 0.018718000184822572 0.9986619911661611 -0.04819739430362229 0.9986619911661613 -0.048197394303622305 0.0008714423143272394 0.01872108892859055
10251699.793909857 0.0009471266331396521 0.01883422580880884 0.9986452689673332 -0.04849743971063323 0.9986452689673332 -0.04849743971063323 0.0008823278605250836 0.01883737264649571
10315608.468468422 0.0009589571854441938 0.018951167302243256 0.9986283379289456 -0.04879934778529869 0.9986283379289456 -0.04879934778529869 0.0008933492130981965 0.018954373326084562
10379915.547073727 0.0009709353238522557 0.019068828964888807 0.99861119544666 -0.049103129992877914 0.9986111954466598 -0.0491031299928779 0.0009045080620822155 0.019072095287642483
10444623.513360197 0.0009830628847393842 0.01918721512025742 0.9985938388837556 -0.04940879786735617 0.9985938388837556 -0.04940879786735617 0.0009158061184368131 0.019190542875589026
10509734.866445139 0.0009953417272103727 0.019306330115700893 0.9985762655707305 -0.049716363011821946 0.9985762655707305 -0.049716363011821946 0.0009272451143027733 0.01930972045857596
10575252.12102525 0.0010077737333788492 0.01942617832250121 0.9985584728048951 -0.050025837098845255 0.9985584728048951 -0.050025837098845255 0.0009388268032601508 0.01942963242958509
10641177.807473743 0.0010203608086469698 0.01954676413596049 0.9985404578499626 -0.05033723187085747 0.9985404578499626 -0.05033723187085747 0.0009505529605927647 0.019550283206025486
10707514.471938077 0.0010331048819927392 0.019668091975490225 0.9985222179356342 -0.05065055914053256 0.998522217935634 -0.05065055914053255 0.0009624253835515857 0.019671677229830604
10774264.676438287 0.0010460079062567303 0.019790166284700112 0.9985037502571783 -0.050965830791169564 0.9985037502571783 -0.050965830791169564 0.0009744458916253025 0.019793818967554673
10841430.99896591 0.0010590718584345552 0.019912991531486075 0.9984850519750071 -0.051283058777076486 0.9984850519750074 -0.0512830587770765 0.0009866163268117886 0.01991671291046875
10909016.03358365 0.0010722987399723878 0.02003657220811806 0.9984661202142431 -0.051602255123955804 0.9984661202142431 -0.051602255123955804 0.0009989385538933075 0.02004036357465655
10977022.390525417 0.0010856905770655553 0.020160912831326636 0.9984469520642862 -0.051923431929290574 0.9984469520642862 -0.051923431929290574 0.0010114144607153673 0.02016477550110925
11045452.69629724 0.0010992494209609404 0.02028601794238939 0.9984275445783711 -0.052246601362732646 0.9984275445783714 -0.05224660136273266 0.001024045958468744 0.020289953255820253
11114309.593778675 0.0011129773482632787 0.02041189210721646 0.9984078947731221 -0.052571775666491835 0.9984078947731223 -0.05257177566649185 0.0010368349819745413 0.02041590142987927
11183595.742324881 0.0011268764612450194 0.020538539916435256 0.9983879996281002 -0.05289896715572638 0.9983879996281001 -0.052898967155726374 0.0010497834899727302 0.020542624639565736
11253313.81786933 0.0011409488881593559 0.020665965985474617 0.9983678560853467 -0.05322818821893476 0.9983678560853467 -0.05322818821893476 0.0010628934654146572 0.02067012752644174
11323466.513027148 0.0011551967835569488 0.020794174954648012 0.9983474610489196 -0.05355945131834869 0.9983474610489195 -0.05355945131834868 0.0010761669157590566 0.020798414757444296
11394056.53719912 0.0011696223286081183 0.020923171489236076 0.9983268113844262 -0.05389276899032758 0.9983268113844261 -0.05389276899032757 0.0010896058732698982 0.020927491024977072
11465086.616676314 0.0011842277314260314 0.02105296027956818 0.9983059039185476 -0.054228153845753885 0.9983059039185476 -0.054228153845753885 0.0011032123953205841 0.021057361047001236
11536559.494745394 0.0011990152273963872 0.02118354604110325 0.9982847354385599 -0.054565618570430116 0.9982847354385599 -0.054565618570430116 0.001116988564699127 0.02118802956712589
11608477.931794558 0.001213987079509235 0.02131493351450962 0.9982633026918477 -0.05490517592547668 0.9982633026918477 -0.05490517592547668 0.0011309364899187108 0.021319501354697557
11680844.705420146 0.001229145578695812 0.021447127465743933 0.9982416023854129 -0.055246838747731154 0.9982416023854129 -0.055246838747731154 0.0011450583055308604 0.021451781204889022
11753662.610533921 0.001244493044168328 0.021580132686129176 0.9982196311853769 -0.05559061995014863 0.9982196311853769 -0.05559061995014863 0.0011593561724433663 0.021584873938787358
11826934.459471015 0.0012600318237650729 0.02171395399243164 0.9981973857164774 -0.05593653252220332 0.9981973857164774 -0.05593653252220332 0.0011738322782406838 0.021718784403481215
11900663.082098538 0.0012757642942983884 0.021848596226936856 0.9981748625615574 -0.0562845895302912 0.9981748625615574 -0.0562845895302912 0.001188488837509334 0.021853517472147175
11974851.325924875 0.0012916928619073258 0.021984064257524524 0.9981520582610509 -0.056634804118133826 0.9981520582610509 -0.056634804118133826 0.0012033280921665873 0.02198907804413528
12049502.05620966 0.0013078199624147542 0.022120362977742204 0.9981289693124588 -0.05698718950718321 0.9981289693124588 -0.05698718950718321 0.001218352311792746 0.022125471045053653
12124618.15607444 0.0013241480616880894 0.022257497306878146 0.9981055921698223 -0.05734175899702806 0.9981055921698223 -0.05734175899702806 0.0012335637939679684 0.0222627014268523
12200202.526614023 0.0013406796560044324 0.02239547219003265 0.9980819232431871 -0.05769852596580063 0.9980819232431871 -0.05769852596580063 0.0012489648646128804 0.022400774167905722
12276258.087008521 0.001357417272420585 0.02253429259818837 0.9980579588980615 -0.058057503870585 0.9980579588980615 -0.058057503870585 0.0012645578783326559 0.022539694273094733
12352787.774636095 0.0013743634691460302 0.02267396352827944 0.9980336954548692 -0.058418706247826274 0.9980336954548694 -0.05841870624782629 0.001280345218766543 0.022679466773887144
12429794.545186404 0.0013915208359224118 0.022814490003259105 0.998009129188395 -0.05878214671374073 0.998009129188395 -0.05878214671374073 0.0012963292989393877 0.02282009672841741
12507281.372774748 0.0014088919944051923 0.02295587707216622 0.9979842563272221 -0.05914783896472693 0.9979842563272221 -0.05914783896472693 0.001312512561619583 0.022961589221565146
12585251.250056945 0.0014264795985516876 0.023098129810190354 0.9979590730531653 -0.05951579677777801 0.9979590730531653 -0.05951579677777801 0.0013288974796793437 0.0231039493650326
12663707.18834488 0.0014442863350123555 0.023241253318735364 0.9979335755006958 -0.05988603401089459 0.9979335755006958 -0.05988603401089459 0.00134548655646049 0.0232471822974208
12742652.217722906 0.0014623149235275317 0.023385252725481816 0.9979077597563593 -0.06025856460349924 0.9979077597563595 -0.06025856460349925 0.0013622823261437303 0.023391293184304763
12822089.387164721 0.001480568117327964 0.02353013318444745 0.9978816218581871 -0.060633402576850695 0.9978816218581871 -0.060633402576850695 0.0013792873541230086 0.023536287218306952
12902021.76465123 0.001499048703541477 0.02367589987604652 0.9978551577950998 -0.06101056203446008 0.9978551577950996 -0.061010562034460064 0.0013965042373829224 0.02368216961917004
12982452.437288998 0.0015177595036019972 0.023822558007147433 0.9978283635063043 -0.06139005716250734 0.9978283635063043 -0.06139005716250734 0.0014139356048828763 0.02382894563382784
13063384.511429489 0.0015367033736663805 0.02397011281112876 0.9978012348806843 -0.06177190223025892 0.9978012348806843 -0.06177190223025892 0.0014315841179427659 0.023976620536475333
13144821.112789033 0.0015558832050329814 0.02411856954793345 0.9977737677561808 -0.06215611159048561 0.9977737677561807 -0.062156111590485605 0.0014494524706362192 0.024125199628636716
13226765.386569548 0.0015753019245683577 0.024267933504121597 0.9977459579191679 -0.06254269967988184 0.9977459579191678 -0.06254269967988182 0.0014675433901852664 0.024274688239232647
13309220.497580012 0.001594962495135655 0.024418209992921176 0.9977178011038204 -0.06293168101948524 0.9977178011038202 -0.06293168101948522 0.0014858596373628337 0.024425091724645395
13392189.630358689 0.0016148679160304814 0.024569404354277163 0.9976892929914725 -0.06332307021509699 0.9976892929914722 -0.06332307021509698 0.0015044040068974665 0.02457641546878285
13475675.989296125 0.00163502122342075 0.024721521954898577 0.9976604292099694 -0.06371688195770302 0.9976604292099697 -0.06371688195770303 0.0015231793278838485 0.0247286648831407
13559682.798758907 0.0016554254907917277 0.024874568188303924 0.9976312053330142 -0.06411313102389574 0.9976312053330142 -0.06411313102389574 0.0015421884641980282 0.0248818454068632
13644213.303214185 0.001676083829396637 0.025028548474864288 0.9976016168795003 -0.06451183227629617 0.9976016168795006 -0.06451183227629619 0.0015614343149170406 0.02503596250680201
13729270.76735499 0.0016969993887114123 0.025183468261844748 0.9975716593128424 -0.06491300066397707 0.9975716593128424 -0.06491300066397707 0.0015809198147445156 0.025191021677573474
13814858.47622631 0.0017181753568966218 0.025339333023443465 0.9975413280402963 -0.06531665122288621 0.9975413280402965 -0.06531665122288623 0.0016006479344393028 0.02534702844161411
13900979.73535197 0.0017396149612627396 0.02549614826082879 0.9975106184122695 -0.06572279907627032 0.9975106184122694 -0.06572279907627031 0.0016206216812510558 0.025503988349234143
13987637.870862298 0.0017613214687419347 0.02565391950217412 0.9974795257216278 -0.06613145943509964 0.9974795257216278 -0.06613145943509964 0.001640844099359739 0.025661906978669324
14074836.229622576 0.0017832981863654125 0.025812652302690486 0.9974480452029878 -0.06654264759849252 0.9974480452029878 -0.06654264759849252 0.0016613182703200879 0.025820789936130677
14162578.179362308 0.0018055484617452773 0.025972352244656927 0.9974161720320067 -0.06695637895414085 0.9974161720320066 -0.06695637895414083 0.0016820473135122113 0.025980642855852366
14250867.10880529 0.0018280756835628892 0.026133024937448367 0.9973839013246582 -0.06737266897873548 0.9973839013246584 -0.06737266897873549 0.0017030343865964274 0.02614147140013741
14339706.427800473 0.0018508832820627367 0.026294676017561185 0.9973512281365052 -0.06779153323839228 0.9973512281365052 -0.06779153323839228 0.0017242826859734705 0.026303281259401436
14429099.567453673 0.0018739747295511994 0.02645731114863625 0.9973181474619595 -0.06821298738907822 0.9973181474619595 -0.06821298738907822 0.0017457954472507656 0.026466078152214148
14519049.980260082 0.0018973535409021552 0.026620936021479406 0.9972846542335334 -0.06863704717703774 0.9972846542335333 -0.06863704717703772 0.0017675759457129628 0.026629867825338726
14609561.140237592 0.0019210232740675748 0.02678555635407921 0.9972507433210852 -0.06906372843921933 0.997250743321085 -0.06906372843921932 0.0017896274967986487 0.026794656053768715
14700636.543060994 0.0019449875305942203 0.026951177891622317 0.9972164095310518 -0.06949304710370241 0.9972164095310517 -0.0694930471037024 0.0018119534565823486 0.026960448640762972
14792279.706196932 0.0019692499561464656 0.02711780640650566 0.9971816476056758 -0.06992501919012391 0.9971816476056758 -0.06992501919012391 0.0018345572222617389 0.027127251417877734
14884494.169039886 0.0019938142410345877 0.027285447698346364 0.9971464522222199 -0.07035966081010572 0.9971464522222199 -0.07035966081010572 0.0018574422326510754 0.02729507024499683
14977283.493048687 0.002018684120749597 0.02745410759398813 0.9971108179921747 -0.07079698816768086 0.9971108179921747 -0.07079698816768086 0.0018806119686795855 0.02746391101035871
15070651.261884179 0.0020438633765038714 0.02762379194750513 0.9970747394604553 -0.0712370175597207 0.9970747394604556 -0.07123701755972071 0.001904069953895972 0.02763377963058137
15164601.081547605 0.0020693558357782883 0.027794506640202728 0.9970382111045909 -0.07167976537636186 0.9970382111045908 -0.07167976537636185 0.001927819754978286 0.027804682050684534
15259136.580519866 0.0020951653728748187 0.027966257580615016 0.9970012273338994 -0.07212524810143253 0.9970012273338994 -0.07212524810143253 0.0019518649822503483 0.027976624244108964
15354261.409901673 0.0021212959094761563 0.0281390507044993 0.99696378248866 -0.07257348231287926 0.99696378248866 -0.07257348231287926 0.001976209290203311 0.028149612212733183
15449979.243554536 0.002147751415211924 0.028312891974827163 0.9969258708392689 -0.07302448468319288 0.9969258708392688 -0.07302448468319286 0.00200085637802289 0.028323651986887254
15546293.778242676 0.00217453590823003 0.028487787381772305 0.9968874865853883 -0.0734782719798345 0.9968874865853882 -0.07347827197983449 0.0020258099901238414 0.02849874962536359
15643208.733775787 0.0022016534557751724 0.028663742942694907 0.9968486238550854 -0.07393486106566104 0.9968486238550853 -0.07393486106566102 0.0020510739166898057 0.02867491121542478
15740727.853152703 0.002229108174775007 0.028840764702122542 0.9968092767039607 -0.0743942688993504 0.9968092767039606 -0.07439426889935039 0.0020766519942181498 0.028852142872808535
15838854.90270596 0.002256904232430907 0.029018858731727375 0.9967694391142655 -0.0748565125358261 0.9967694391142654 -0.07485651253582609 0.0021025481060729365 0.029030450741729174
15937593.672247253 0.0022850458468167364 0.029198031130299867 0.9967291049940097 -0.07532160912668141 0.9967291049940097 -0.07532160912668141 0.0021287661830428108 0.029209840994876158
16036947.97521381 0.002313537287483614 0.029378288023718495 0.9966882681760583 -0.07578957592060284 0.9966882681760583 -0.07578957592060284 0.0021553102039058676 0.029390319833409055
16136921.648815671 0.00234238287607243 0.029559635564915827 0.996646922417218 -0.07626043026379312 0.996646922417218 -0.07626043026379312 0.002182184195999958 0.02957189348694943
16237518.55418388 0.0023715869869320957 0.02974207993384061 0.9966050613973135 -0.07673418960039345 0.9966050613973134 -0.07673418960039344 0.0022093922358004947 0.02975456821356906
16338742.57651962 0.0024011540477454794 0.02992562733741568 0.9965626787182508 -0.07721087147290463 0.9965626787182508 -0.07721087147290463 0.0022369384495039752 0.02993835029977463
16440597.62524425 0.002431088540161722 0.03011028400949192 0.9965197679030713 -0.0776904935226079 0.9965197679030713 -0.0776904935226079 0.0022648270136186558 0.030123246060488787
16543087.634150311 0.0024613950004366975 0.030296056210797933 0.9964763223949948 -0.07817307348998444 0.9964763223949948 -0.07817307348998444 0.0022930621555607433 0.030309261839027653
16646216.561553435 0.002492078020078967 0.030482950228885343 0.9964323355564497 -0.07865862921513399 0.9964323355564497 -0.07865862921513399 0.002321648154258853 0.030496404007074145
16749988.390445238 0.002523142246504468 0.030670972378069802 0.996387800668094 -0.07914717863819261 0.996387800668094 -0.07914717863819261 0.0023505893407636913 0.03068467896464789
16854407.128647137 0.0025545923836977525 0.030860128999367364 0.996342710927823 -0.07963873979974903 0.996342710927823 -0.07963873979974903 0.002379890098865193 0.030874093140070762
16959476.808965143 0.0025864331928801454 0.03105042646042624 0.9962970594497655 -0.0801333308412599 0.9962970594497655 -0.0801333308412599 0.0024095548657169373 0.031064652989928443
17065201.489345618 0.00261866949318676 0.031241871155453897 0.9962508392632698 -0.08063097000546385 0.9962508392632698 -0.08063097000546385 0.0024395881324660263 0.031256364999027966
17171585.25303199 0.002651306162348727 0.031434469505139326 0.9962040433118758 -0.08113167563679413 0.9962040433118758 -0.08113167563679413 0.002469994444892191 0.03144923568035071
17278632.20872243 0.0026843481373851094 0.03162822795657019 0.996156664452277 -0.08163546618178971 0.9961566644522772 -0.08163546618178973 0.002500778404051758 0.031643271575001214
17386346.490728658 0.002717800415301551 0.031823152983145364 0.996108695453268 -0.0821423601895054 0.996108695453268 -0.0821423601895054 0.0025319446669297167 0.03183847925215169
17494732.25913543 0.0027516680537958316 0.03201925108448159 0.9960601289946825 -0.08265237631191921 0.9960601289946825 -0.08265237631191921 0.002563497947099511 0.03203486530898128
17603793.699961327 0.002785956171973041 0.03221652878631549 0.9960109576663164 -0.08316553330433935 0.9960109576663164 -0.08316553330433935 0.002595443015388415 0.03223243637061154
17713535.025320396 0.002820669951066287 0.03241499264039998 0.9959611739668409 -0.0836818500258086 0.9959611739668408 -0.08368185002580858 0.0026277847005523615 0.032431199090036375
17823960.473584834 0.002855814635167192 0.032614649224395005 0.9959107703026993 -0.08420134543950725 0.9959107703026993 -0.08420134543950725 0.0026605278899563046 0.032631160148047594
17935074.30954868 0.002891395531963484 0.032815505141752896 0.9958597389869952 -0.08472403861315383 0.9958597389869952 -0.08472403861315383 0.0026936775302628447 0.032832326253155235
18046880.824592516 0.002927418013484372 0.03301756702159771 0.9958080722383644 -0.08524994871940403 0.9958080722383643 -0.08524994871940401 0.0027272386281285976 0.033034704141502655
18159384.336849213 0.0029638875168547297 0.03322084151859889 0.9957557621798359 -0.08577909503624714 0.9957557621798359 -0.08577909503624714 0.002761216250907448 0.033238300576776715
18272589.191370707 0.003000809545056856 0.03342533531283875 0.9957028008376784 -0.08631149694740087 0.9957028008376783 -0.08631149694740085 0.0027956155273620065 0.033443122350112306
18386499.760295816 0.0030381896677007755 0.033631055109673916 0.9956491801402334 -0.08684717394270307 0.9956491801402334 -0.08684717394270307 0.0028304416483824787 0.033649176279991595
18501120.44301908 0.0030760335218027062 0.033838007639590426 0.9955948919167364 -0.08738614561850168 0.9955948919167362 -0.08738614561850166 0.0028656998677134443 0.03385646921213759
18616455.666360695 0.0031143468125720843 0.03404619965805238 0.9955399278961217 -0.08792843167804179 0.9955399278961217 -0.08792843167804179 0.0029013955026882944 0.03406500801940203
18732509.884737458 0.0031531353142066187 0.03425563794534421 0.9954842797058165 -0.08847405193185022 0.9954842797058164 -0.0884740519318502 0.0029375339349720134 0.03427479960164743
18849287.580334824 0.0031924048706964115 0.0344663293064059 0.9954279388705185 -0.08902302629811729 0.9954279388705185 -0.08902302629811729 0.0029741206113113546 0.03448585088562313
18966793.263280015 0.0032321613966364827 0.034678280570661815 0.9953708968109611 -0.08957537480307577 0.995370896810961 -0.08957537480307576 0.003011161044293305 0.03469816882483538
19085031.47181619 0.003272410878047589 0.03489149859184216 0.9953131448426634 -0.0901311175813769 0.9953131448426634 -0.0901311175813769 0.00304866081311196 0.03491176039941101
19204006.77247773 0.0033131593732060247 0.035105990247797474 0.9952546741746662 -0.09069027487646326 0.9952546741746662 -0.09069027487646326 0.0030866255643433784 0.03512663261595475
19323723.760266613 0.003354413013482872 0.035321762440305854 0.9951954759082532 -0.09125286704093853 0.9951954759082532 -0.09125286704093853 0.0031250610127280328 0.035342792507400314
19444187.05882986 0.003396178004190726 0.03553882209487263 0.9951355410356582 -0.09181891453693396 0.9951355410356582 -0.09181891453693396 0.003163972941962949 0.03556024713285444
