! Created with skrf 1.11.0 (http://scikit-rf.org).
# Hz S RI R 50.0 
!freq ReS11 ImS11 ReS21 ImS21 ReS12 ImS12 ReS22 ImS22
10000000.0 -0.0013551689929642097 -0.007801714060118187 0.9972894623112114 -0.07315070155329953 0.9972894623112113 -0.07315070155329952 0.00020228571550094735 -0.007915952612581868
10062339.588403216 -0.0013721119245360279 -0.007849691231493545 0.9972555541287458 -0.07360610990811015 0.9972555541287458 -0.07360610990811015 0.00020477090850884295 -0.007966078862167323
10125067.799234658 -0.0013892666090027522 -0.007897955084826791 0.9972212216612787 -0.07406434575525657 0.9972212216612785 -0.07406434575525656 0.0002072860572993989 -0.008016532213075715
10188187.055150552 -0.0014066356909361601 -0.007946507173328092 0.99718645959729 -0.07452542650397664 0.9971864595972899 -0.07452542650397663 0.00020983150819650281 -0.008067314978413712
10251699.793909857 -0.0014242218478866435 -0.007995349055472034 0.9971512625587036 -0.07498936966792563 0.9971512625587036 -0.07498936966792563 0.00021240761114286972 -0.00811842949082911
10315608.468468422 -0.0014420277907934496 -0.008044482294946805 0.99711562510005 -0.07545619286574896 0.99711562510005 -0.07545619286574896 0.00021501471972764846 -0.008169878102727951
10379915.547073727 -0.0014600562643994166 -0.008093908460601528 0.9970795417076225 -0.07592591382165727 0.9970795417076225 -0.07592591382165727 0.00021765319121334553 -0.008221663186494787
10444623.513360197 -0.0014783100476717026 -0.00814362912639146 0.9970430067986176 -0.07639855036600315 0.9970430067986175 -0.07639855036600314 0.00022032338656352015 -0.008273787134715977
10509734.866445139 -0.00149679195422607 -0.008193645871321473 0.9970060147202694 -0.0768741204358603 0.9970060147202694 -0.0768741204358603 0.00022302567046868747 -0.008326252360406291
10575252.12102525 -0.001515504832759052 -0.008243960279387275 0.9969685597489708 -0.0773526420756047 0.9969685597489708 -0.0773526420756047 0.00022576041137470744 -0.008379061297238914
10641177.807473743 -0.0015344515674825321 -0.008294573939514664 0.9969306360893836 -0.07783413343749743 0.9969306360893835 -0.07783413343749741 0.00022852798150813382 -0.008432216399778484
10707514.471938077 -0.001553635078565658 -0.008345488445496605 0.9968922378735375 -0.07831861278227 0.9968922378735375 -0.07831861278227 0.00023132875690332056 -0.008485720143717717
10774264.676438287 -0.0015730583225813822 -0.008396705395928142 0.9968533591599187 -0.07880609847971108 0.9968533591599187 -0.07880609847971108 0.00023416311742853804 -0.00853957502611737
10841430.99896591 -0.0015927242929590587 -0.008448226394139167 0.9968139939325456 -0.07929660900925559 0.9968139939325456 -0.07929660900925559 0.00023703144681240127 -0.00859378356564986
10909016.03358365 -0.0016126360204418246 -0.008500053048124791 0.9967741361000341 -0.07979016296057614 0.9967741361000341 -0.07979016296057614 0.00023993413266930696 -0.008648348302846172
10977022.390525417 -0.0016327965735502396 -0.008552186970473514 0.9967337794946498 -0.08028677903417489 0.9967337794946498 -0.08028677903417489 0.00024287156652524807 -0.008703271800346574
11045452.69629724 -0.0016532090590517785 -0.008604629778292886 0.9966929178713495 -0.0807864760419789 0.9966929178713495 -0.0807864760419789 0.0002458441438434959 -0.008758556643154931
11114309.593778675 -0.0016738766224354158 -0.008657383093132926 0.9966515449068096 -0.08128927290793656 0.9966515449068096 -0.08128927290793656 0.00024885226404932243 -0.008814205438896754
11183595.742324881 -0.0016948024483923805 -0.008710448540906919 0.9966096541984444 -0.0817951886686161 0.9966096541984443 -0.08179518866861608 0.000251896330554757 -0.008870220818080985
11253313.81786933 -0.001715989761303779 -0.00876382775180978 0.9965672392634071 -0.08230424247380563 0.9965672392634073 -0.08230424247380565 0.00025497675078395656 -0.00892660543436587
11323466.513027148 -0.0017374418257318353 -0.008817522360233782 0.9965242935375845 -0.08281645358711535 0.9965242935375845 -0.08281645358711535 0.00025809393619590025 -0.008983361964828313
11394056.53719912 -0.0017591619469201046 -0.008871534004681646 0.9964808103745749 -0.08333184138658127 0.9964808103745749 -0.08333184138658127 0.00026124830230960894 -0.009040493110237675
11465086.616676314 -0.0017811534712979748 -0.008925864327676992 0.9964367830446539 -0.08385042536527071 0.9964367830446539 -0.08385042536527071 0.0002644402687271486 -0.009098001595333395
11536559.494745394 -0.0018034197869913537 -0.00898051497567195 0.996392204733727 -0.08437222513188956 0.996392204733727 -0.08437222513188956 0.0002676702591562313 -0.009155890169106624
11608477.931794558 -0.0018259643243408745 -0.009035487598952048 0.9963470685422706 -0.08489726041139115 0.9963470685422706 -0.08489726041139115 0.0002709387014335965 -0.009214161605086346
11680844.705420146 -0.001848790556424956 -0.009090783851538222 0.9963013674842573 -0.08542555104558687 0.9963013674842573 -0.08542555104558687 0.0002742460275464658 -0.009272818701629465
11753662.610533921 -0.0018719019995911451 -0.009146405391085766 0.9962550944860695 -0.08595711699375828 0.9962550944860694 -0.08595711699375827 0.0002775926736553671 -0.009331864282215475
11826934.459471015 -0.0018953022139918238 -0.009202353878780403 0.9962082423853981 -0.08649197833327095 0.9962082423853981 -0.08649197833327095 0.0002809790801143343 -0.009391301195745196
11900663.082098538 -0.0019189948041281036 -0.009258630979231389 0.9961608039301283 -0.08703015526018971 0.9961608039301282 -0.0870301552601897 0.00028440569149214094 -0.00945113231684441
11974851.325924875 -0.0019429834193999455 -0.009315238360361182 0.9961127717772092 -0.08757166808989536 0.9961127717772091 -0.08757166808989535 0.0002878729565926065 -0.009511360546171627
12049502.05620966 -0.0019672717546627676 -0.00937217769329224 0.9960641384915132 -0.08811653725770321 0.9960641384915132 -0.08811653725770321 0.000291381328474012 -0.009571988810730781
12124618.15607444 -0.0019918635507914575 -0.009429450652230392 0.9960148965446759 -0.0886647833194826 0.9960148965446758 -0.08866478331948259 0.0002949312644685151 -0.009633020064188527
12200202.526614023 -0.0020167625952505694 -0.009487058914344907 0.9959650383139255 -0.08921642695227817 0.9959650383139255 -0.08921642695227817 0.0002985232262002114 -0.009694457287196225
12276258.087008521 -0.002041972722672176 -0.009545004159645168 0.9959145560808953 -0.08977148895493232 0.9959145560808953 -0.08977148895493232 0.0003021576796031854 -0.009756303487716932
12352787.774636095 -0.002067497815440236 -0.009603288070853862 0.9958634420304219 -0.0903299902487091 0.9958634420304219 -0.0903299902487091 0.00030583509493831715 -0.009818561701357196
12429794.545186404 -0.0020933418042834526 -0.00966191233327662 0.9958116882493279 -0.09089195187791921 0.9958116882493279 -0.09089195187791921 0.00030955594681068274 -0.009881234991704109
12507281.372774748 -0.002119508668872884 -0.009720878634668119 0.9957592867251891 -0.09145739501054644 0.9957592867251891 -0.09145739501054644 0.00031332071418371815 -0.009944326450667125
12585251.250056945 -0.00214600243842971 -0.009780188665094306 0.9957062293450872 -0.09202634093887545 0.9957062293450872 -0.09202634093887545 0.0003171298803954065 -0.010007839198825377
12663707.18834488 -0.002172827192338576 -0.009839844116790942 0.9956525078943446 -0.09259881108011969 0.9956525078943446 -0.09259881108011969 0.0003209839331718275 -0.01007177638578006
12742652.217722906 -0.0021999870607688887 -0.009899846684018575 0.9955981140552456 -0.09317482697705264 0.9955981140552456 -0.09317482697705264 0.00032488336464018517 -0.0101361411905125
12822089.387164721 -0.002227486225304486 -0.00996019806291281 0.9955430394057397 -0.09375441029863708 0.9955430394057397 -0.09375441029863708 0.00032882867134190555 -0.010200936821747148
12902021.76465123 -0.002255328919579605 -0.010020899951331489 0.9954872754181301 -0.09433758284065798 0.9954872754181303 -0.094337582840658 0.0003328203542432084 -0.010266166518320699
12982452.437288998 -0.0022835194299241483 -0.010081954048697024 0.9954308134577425 -0.09492436652635496 0.9954308134577425 -0.09492436652635496 0.00033685891874635785 -0.010331833549556461
13063384.511429489 -0.0023120620960159154 -0.010143362055835057 0.9953736447815822 -0.09551478340705623 0.9953736447815822 -0.09551478340705623 0.0003409448746989104 -0.01039794121564478
13144821.112789033 -0.0023409613115408473 -0.010205125674808399 0.9953157605369685 -0.0961088556628129 0.9953157605369684 -0.09610885566281288 0.00034507873640203177 -0.01046449284802889
13226765.386569548 -0.0023702215248616256 -0.010267246608746991 0.9952571517601557 -0.09670660560303462 0.9952571517601556 -0.09670660560303461 0.00034926102261793434 -0.010531491809797122
13309220.497580012 -0.00239984723969465 -0.010329726561673176 0.9951978093749357 -0.09730805566712554 0.9951978093749356 -0.09730805566712553 0.0003534922565764348 -0.010598941496080958
13392189.630358689 -0.0024298430157948343 -0.010392567238322341 0.9951377241912224 -0.0979132284251211 0.9951377241912224 -0.0979132284251211 0.00035777296597991077 -0.010666845334459094
13475675.989296125 -0.0024602134696486235 -0.010455770343959234 0.9950768869036186 -0.09852214657832556 0.9950768869036186 -0.09852214657832556 0.0003621036830068407 -0.010735206785367983
13559682.798758907 -0.0024909632751767084 -0.010519337584189185 0.9950152880899641 -0.09913483295994989 0.9950152880899643 -0.09913483295994992 0.00036648494431534704 -0.01080402934251867
13644213.303214185 -0.002522097164443242 -0.01058327066476474 0.9949529182098669 -0.09975131053575018 0.9949529182098666 -0.09975131053575015 0.00037091729104336303 -0.010873316533319887
13729270.76735499 -0.0025536199283757222 -0.010647571291387084 0.9948897676032135 -0.10037160240466653 0.9948897676032135 -0.10037160240466653 0.00037540126880943584 -0.010943071919307863
13814858.47622631 -0.002585536417493066 -0.010712241169502685 0.9948258264886629 -0.10099573179946239 0.9948258264886631 -0.10099573179946242 0.00037993742771149974 -0.011013299096582961
13900979.73535197 -0.002617851542641417 -0.010777282004094649 0.9947610849621206 -0.10162372208736412 0.9947610849621206 -0.10162372208736412 0.0003845263223230919 -0.011084001696252718
13987637.870862298 -0.0026505702757406895 -0.010842695499468742 0.9946955329951911 -0.10225559677070058 0.9946955329951911 -0.10225559677070058 0.0003891685116897794 -0.011155183384882066
14074836.229622576 -0.0026836976505387857 -0.010908483359034193 0.9946291604336144 -0.10289137948754314 0.9946291604336142 -0.10289137948754311 0.0003938645593225941 -0.011226847864950472
14162578.179362308 -0.0027172387633763325 -0.010974647285078869 0.9945619569956805 -0.10353109401234568 0.9945619569956805 -0.10353109401234568 0.0003986150331911597 -0.011298998875316255
14250867.10880529 -0.00275119877395926 -0.011041188978538972 0.9944939122706238 -0.10417476425658442 0.994493912270624 -0.10417476425658445 0.000403420505713678 -0.011371640191688053
14339706.427800473 -0.002785582906142003 -0.011108110138762983 0.9944250157169987 -0.10482241426939821 0.9944250157169985 -0.10482241426939819 0.0004082815537463337 -0.011444775627103833
14429099.567453673 -0.002820396448719742 -0.011175412463269627 0.9943552566610315 -0.1054740682382276 0.9943552566610314 -0.10547406823822758 0.0004131987585704693 -0.011518409032417144
14519049.980260082 -0.002855644756230039 -0.011243097647500136 0.9942846242949555 -0.10612975048945492 0.9942846242949557 -0.10612975048945494 0.0004181727058775586 -0.011592544296791204
14609561.140237592 -0.0028913332497650414 -0.011311167384564237 0.9942131076753227 -0.10678948548904318 0.9942131076753226 -0.10678948548904317 0.00042320398575310087 -0.011667185348200711
14700636.543060994 -0.002927467417792283 -0.011379623364980072 0.9941406957212922 -0.10745329784317476 0.9941406957212922 -0.10745329784317476 0.00042829319265721386 -0.011742336153941399
14792279.706196932 -0.0029640528169870453 -0.011448467276407623 0.9940673772129018 -0.10812121229888956 0.9940673772129018 -0.10812121229888956 0.0004334409254047356 -0.011818000721147774
14884494.169039886 -0.0030010950730735655 -0.01151770080337587 0.9939931407893128 -0.10879325374472337 0.9939931407893127 -0.10879325374472336 0.00043864778714187335 -0.011894183097318921
14977283.493048687 -0.003038599881676563 -0.011587325627003145 0.9939179749470355 -0.10946944721134354 0.9939179749470354 -0.10946944721134352 0.00044391438532082685 -0.011970887370852416
15070651.261884179 -0.0030765730091840667 -0.011657343424711012 0.9938418680381311 -0.110149817872186 0.9938418680381311 -0.110149817872186 0.00044924133167292514 -0.012048117671587116
15164601.081547605 -0.003115020293620067 -0.011727755869930911 0.9937648082683906 -0.11083439104409028 0.9937648082683906 -0.11083439104409028 0.0004546292421788769 -0.01212587817135401
15259136.580519866 -0.003153947645527077 -0.011798564631804152 0.9936867836954921 -0.11152319218793369 0.993686783695492 -0.11152319218793368 0.0004600787370358149 -0.01220417308453601
15354261.409901673 -0.0031933610488607688 -0.011869771374874633 0.9936077822271316 -0.11221624690926477 0.9936077822271315 -0.11221624690926475 0.00046559044062314284 -0.012283006668636744
15449979.243554536 -0.003233266561894678 -0.011941377758774002 0.9935277916191333 -0.11291358095893465 0.9935277916191333 -0.11291358095893465 0.00047116498146509105 -0.012362383224857965
15546293.778242676 -0.00327367031813541 -0.012013385437899822 0.993446799473535 -0.11361522023372846 0.993446799473535 -0.11361522023372846 0.000476802992189974 -0.012442307098686442
15643208.733775787 -0.0033145785272501505 -0.012085796061085775 0.993364793236647 -0.11432119077699383 0.993364793236647 -0.11432119077699383 0.00048250510948793466 -0.012522782680490075
15740727.853152703 -0.0033559974760043235 -0.01215861127126421 0.9932817601970902 -0.11503151877926916 0.9932817601970902 -0.11503151877926916 0.0004882719740647045 -0.01260381440612339
15838854.90270596 -0.0033979335292111663 -0.012231832705120705 0.9931976874838053 -0.11574623057890909 0.9931976874838055 -0.11574623057890912 0.0004941042305929595 -0.012685406757542627
15937593.672247253 -0.0034403931306924342 -0.012305461992740732 0.9931125620640402 -0.11646535266270923 0.9931125620640404 -0.11646535266270926 0.0005000025276601826 -0.012767564263430821
16036947.97521381 -0.003483382804250911 -0.012379500757247783 0.9930263707413086 -0.11718891166652802 0.9930263707413088 -0.11718891166652805 0.0005059675177136022 -0.012850291499832528
16136921.648815671 -0.0035269091546547495 -0.012453950614433433 0.9929391001533256 -0.11791693437590746 0.9929391001533256 -0.11791693437590746 0.0005119998570018358 -0.012933593090799032
16237518.55418388 -0.0035709788686335234 -0.012528813172378325 0.9928507367699149 -0.11864944772669095 0.9928507367699149 -0.11864944772669095 0.0005181002055130721 -0.013017473709043359
16338742.57651962 -0.003615598715886027 -0.01260409003106487 0.9927612668908901 -0.11938647880563918 0.9927612668908901 -0.11938647880563918 0.000524269226909376 -0.013101938076606121
16440597.62524425 -0.0036607755501011753 -0.012679782781980696 0.99267067664391 -0.12012805485104368 0.99267067664391 -0.12012805485104368 0.0005305075884583526 -0.013186990965531931
16543087.634150311 -0.0037065163099896737 -0.01275589300771303 0.9925789519823047 -0.12087420325333739 0.992578951982305 -0.12087420325333742 0.0005368159609595839 -0.013272637198556309
16646216.561553435 -0.0037528280203300286 -0.012832422281533779 0.9924860786828755 -0.12162495155570299 0.9924860786828755 -0.12162495155570299 0.0005431950186690426 -0.01335888164980407
16749988.390445238 -0.00379971779302502 -0.012909372166975167 0.9923920423436665 -0.12238032745467818 0.9923920423436665 -0.12238032745467818 0.000549645439217463 -0.013445729245498418
16854407.128647137 -0.003847192828172825 -0.012986744217395403 0.9922968283817072 -0.12314035880075745 0.9922968283817074 -0.12314035880075748 0.0005561679035265551 -0.013533184964681604
16959476.808965143 -0.003895260415149866 -0.013064539975534846 0.9922004220307279 -0.1239050735989919 0.9922004220307279 -0.1239050735989919 0.0005627630957197499 -0.013621253839947242
17065201.489345618 -0.003943927933706606 -0.013142760973061541 0.992102808338843 -0.12467450000958406 0.992102808338843 -0.12467450000958406 0.0005694317030286811 -0.013709940958183833
17171585.25303199 -0.003993202855077264 -0.013221408730107147 0.9920039721662094 -0.12544866634848106 0.9920039721662092 -0.12544866634848104 0.000576174415695694 -0.013799251461331097
17278632.20872243 -0.004043092743102287 -0.013300484754791437 0.9919038981826499 -0.12622760108796213 0.9919038981826499 -0.12622760108796213 0.0005829919268714342 -0.013889190547147396
17386346.490728658 -0.00409360525536458 -0.013379990542736996 0.9918025708652508 -0.1270113328572249 0.9918025708652508 -0.1270113328572249 0.0005898849325076562 -0.013979763469990485
17494732.25913543 -0.004144748144338736 -0.013459927576572144 0.9916999744959257 -0.12779989044296433 0.9916999744959257 -0.12779989044296433 0.0005968541312447784 -0.014070975541609854
17603793.699961327 -0.004196529258554831 -0.013540297325423245 0.9915960931589503 -0.12859330278995046 0.9915960931589503 -0.12859330278995046 0.0006039002242949421 -0.014162832131952532
17713535.025320396 -0.004248956543775518 -0.013621101244395223 0.9914909107384635 -0.12939159900160005 0.9914909107384635 -0.12939159900160005 0.0006110239153193159 -0.014255338669981353
17823960.473584834 -0.004302038044187517 -0.01370234077404076 0.991384410915941 -0.1301948083405447 0.991384410915941 -0.1301948083405447 0.0006182259103002695 -0.014348500644506735
17935074.30954868 -0.004355781903607567 -0.013784017339817316 0.99127657716763 -0.13100296022919325 0.99127657716763 -0.13100296022919325 0.0006255069174082405 -0.014442323605031638
18046880.824592516 -0.004410196366701735 -0.013866132351532187 0.9911673927619579 -0.13181608425028993 0.9911673927619579 -0.13181608425028993 0.0006328676468618474 -0.014536813162610032
18159384.336849213 -0.004465289780221231 -0.013948687202775081 0.9910568407569041 -0.1326342101474674 0.991056840756904 -0.13263421014746737 0.0006403088107840019 -0.014631974990719531
18272589.191370707 -0.004521070594249814 -0.014031683270338257 0.9909449039973381 -0.13345736782579357 0.9909449039973381 -0.13345736782579357 0.0006478311230488807 -0.0147278148261475
18386499.760295816 -0.00457754736346974 -0.014115121913623546 0.9908315651123267 -0.13428558735231422 0.9908315651123266 -0.1342855873523142 0.0006554352991262169 -0.014824338469892132
18501120.44301908 -0.0046347287484402545 -0.014199004474036356 0.9907168065124029 -0.13511889895658863 0.9907168065124029 -0.13511889895658863 0.0006631220559167016 -0.014921551788077534
18616455.666360695 -0.004692623516891764 -0.014283332274366177 0.990600610386803 -0.1359573330312199 0.9906006103868029 -0.13595733303121987 0.0006708921115812056 -0.015019460712883608
18732509.884737458 -0.004751240545035886 -0.014368106618153602 0.9904829587006669 -0.1368009201323787 0.9904829587006672 -0.13680092013237874 0.0006787461853635942 -0.015118071243491234
18849287.580334824 -0.004810588818890811 -0.014453328789043006 0.9903638331922029 -0.13764969098032082 0.9903638331922029 -0.13764969098032082 0.000686684997406367 -0.015217389447042276
18966793.263280015 -0.004870677435622461 -0.0145390000501214 0.9902432153698163 -0.1385036764598978 0.9902432153698165 -0.13850367645989783 0.0006947092685589826 -0.015317421459615524
19085031.47181619 -0.004931515604900834 -0.014625121643242438 0.990121086509202 -0.139362907621061 0.990121086509202 -0.139362907621061 0.0007028197201781568 -0.015418173487217855
19204006.77247773 -0.004993112650273911 -0.014711694788335533 0.989997427650398 -0.1402274156793576 0.989997427650398 -0.1402274156793576 0.0007110170739218883 -0.015519651806791795
