! Created with skrf 1.11.0 (http://scikit-rf.org).
# Hz S RI R 50.0 
!freq ReS11 ImS11 ReS21 ImS21 ReS12 ImS12 ReS22 ImS22
1000000.0 -7.447184548568835e-07 -0.000226193094548297 0.9999945545088696 -0.0032923834431409643 0.9999945545088696 -0.0032923834431409643 -7.447184547458618e-07 -0.00022619309454829738
1010703.3670422795 -7.607457081259495e-07 -0.0002286140879700229 0.9999944373149277 -0.0033276229085099406 0.9999944373149277 -0.0033276229085099406 -7.607457081259495e-07 -0.0002286140879700229
1021521.2961506026 -7.771178864060869e-07 -0.00023106099306001465 0.9999943175988238 -0.0033632395508170067 0.9999943175988238 -0.0033632395508170067 -7.771178864060869e-07 -0.00023106099306001465
1032455.0135248075 -7.93842412773412e-07 -0.00023353408712424792 0.9999941953062782 -0.003399237406995726 0.9999941953062782 -0.003399237406995726 -7.93842412773412e-07 -0.00023353408712424792
1043505.7584892072 -8.109268700550905e-07 -0.00023603365043563381 0.9999940703818424 -0.0034356205571842656 0.9999940703818424 -0.0034356205571842656 -8.109268701661122e-07 -0.00023603365043563344
1054674.7836330493 -8.283790045447383e-07 -0.00023855996626573624 0.9999939427688752 -0.0034723931251876396 0.9999939427688752 -0.0034723931251876396 -8.283790044337167e-07 -0.00023855996626573662
1065963.3549525128 -8.462067286261002e-07 -0.0002411133209168315 0.9999938124095158 -0.0035095592789450005 0.9999938124095158 -0.0035095592789450005 -8.462067287371218e-07 -0.0002411133209168311
1077372.7519941889 -8.644181258037233e-07 -0.00024369400375430077 0.9999936792446585 -0.003547123231001825 0.9999936792446585 -0.003547123231001825 -8.644181256927018e-07 -0.00024369400375430115
1088904.2680001357 -8.83021452702256e-07 -0.00024630230723938037 0.9999935432139261 -0.003585089238987263 0.9999935432139261 -0.003585089238987263 -8.83021452702256e-07 -0.00024630230723938037
1100559.2100544458 -9.020251443086858e-07 -0.0002489385269622488 0.9999934042556409 -0.0036234616060964618 0.9999934042556409 -0.0036234616060964618 -9.020251441976642e-07 -0.0002489385269622492
1112338.8992314218 -9.214378166861567e-07 -0.00025160296167547636 0.9999932623067982 -0.0036622446815781804 0.9999932623067982 -0.0036622446815781804 -9.214378165751351e-07 -0.0002516029616754768
1124244.6707453008 -9.412682714908766e-07 -0.00025429591332782497 0.9999931173030381 -0.0037014428612274974 0.9999931173030381 -0.0037014428612274974 -9.412682714908766e-07 -0.00025429591332782497
1136277.8741016164 -9.615254999069903e-07 -0.000257017687098412 0.9999929691786148 -0.003741060587883891 0.9999929691786148 -0.003741060587883891 -9.615254999069903e-07 -0.000257017687098412
1148439.873250147 -9.82218686445227e-07 -0.00025976859143123435 0.9999928178663677 -0.0037811023519345476 0.9999928178663677 -0.0037811023519345476 -9.82218686445227e-07 -0.00025976859143123435
1160732.0467395347 -1.0033572133289259e-06 -0.00026254893807006854 0.999992663297691 -0.0038215726918231522 0.999992663297691 -0.0038215726918231522 -1.0033572133289259e-06 -0.00026254893807006854
1173155.787873524 -1.0249506646920311e-06 -0.00026535904209373063 0.9999925054025028 -0.0038624761945640147 0.9999925054025028 -0.0038624761945640147 -1.0249506646920311e-06 -0.00026535904209373063
1185712.5048689113 -1.0470088309241955e-06 -0.00026819922195172165 0.9999923441092122 -0.0039038174962617977 0.9999923441092122 -0.0039038174962617977 -1.0470088309241955e-06 -0.00026819922195172165
1198403.6210151438 -1.0695417130538172e-06 -0.000271069799500248 0.9999921793446878 -0.003945601282636688 0.9999921793446878 -0.003945601282636688 -1.0695417131648386e-06 -0.00027106979950024756
1211230.574835668 -1.0925595276152229e-06 -0.00027397110003863007 0.9999920110342246 -0.003987832289555313 0.9999920110342246 -0.003987832289555313 -1.0925595275042014e-06 -0.0002739711000386305
1224194.8202509652 -1.1160727103920989e-06 -0.0002769034523460923 0.99999183910151 -0.004030515303567191 0.99999183910151 -0.004030515303567191 -1.1160727105031203e-06 -0.00027690345234609185
1237297.826743371 -1.1400919225366153e-06 -0.0002798671887189491 0.9999916634685883 -0.004073655162447053 0.9999916634685883 -0.004073655162447053 -1.1400919225366153e-06 -0.0002798671887189491
1250541.07952362 -1.1646280540702505e-06 -0.0002828626450081873 0.9999914840558269 -0.004117256755742842 0.9999914840558269 -0.004117256755742842 -1.164628053959229e-06 -0.00028286264500818775
1263926.0796992122 -1.1896922294315594e-06 -0.0002858901606574475 0.9999913007818788 -0.004161325025329678 0.9999913007818788 -0.004161325025329678 -1.1896922294315594e-06 -0.0002858901606574475
1277454.3444445422 -1.2152958127415455e-06 -0.00028895007874140793 0.9999911135636472 -0.004205864965969637 0.9999911135636472 -0.004205864965969637 -1.2152958127415455e-06 -0.00028895007874140793
1291127.4071728892 -1.2414504124559701e-06 -0.0002920427460045832 0.9999909223162459 -0.004250881625877626 0.9999909223162459 -0.004250881625877626 -1.2414504124559701e-06 -0.0002920427460045832
1304946.817710207 -1.2681678869056027e-06 -0.0002951685129005264 0.9999907269529625 -0.004296380107293193 0.9999907269529625 -0.004296380107293193 -1.2681678869056027e-06 -0.0002951685129005264
1318914.1424708138 -1.2954603496167151e-06 -0.0002983277336314576 0.9999905273852183 -0.004342365567058556 0.9999905273852183 -0.004342365567058556 -1.2954603496167151e-06 -0.0002983277336314576
1333030.964634935 -1.323340174802731e-06 -0.000301520766188311 0.9999903235225285 -0.004388843217202741 0.9999903235225285 -0.004388843217202741 -1.323340174802731e-06 -0.000301520766188311
1347298.8843281465 -1.3518200029740136e-06 -0.0003047479723912029 0.9999901152724605 -0.004435818325531948 0.9999901152724605 -0.004435818325531948 -1.3518200029740136e-06 -0.0003047479723912029
1361719.518802767 -1.3809127466129302e-06 -0.00030800971793034135 0.9999899025405926 -0.004483296216226326 0.9999899025405926 -0.004483296216226326 -1.3809127467239513e-06 -0.0003080097179303408
1376294.502621149 -1.4106315963051988e-06 -0.0003113063724073594 0.9999896852304719 -0.004531282270443001 0.9999896852304719 -0.004531282270443001 -1.4106315963051988e-06 -0.0003113063724073594
1391025.4878409773 -1.44099002616459e-06 -0.00031463830937709545 0.9999894632435681 -0.0045797819269256515 0.9999894632435681 -0.0045797819269256515 -1.44099002616459e-06 -0.00031463830937709545
1405914.144202505 -1.4720018004964928e-06 -0.0003180059063898171 0.999989236479232 -0.004628800682620521 0.999989236479232 -0.004628800682620521 -1.4720018004964928e-06 -0.0003180059063898171
1420962.1593178397 -1.5036809797602458e-06 -0.0003214095450338883 0.9999890048346473 -0.0046783440932990795 0.9999890048346473 -0.0046783440932990795 -1.5036809797602458e-06 -0.0003214095450338883
1436171.2388622083 -1.5360419269433042e-06 -0.0003248496109789 0.999988768204785 -0.004728417774187268 0.999988768204785 -0.004728417774187268 -1.5360419270543252e-06 -0.00032484961097889946
1451543.1067673187 -1.5690993143501035e-06 -0.0003283264940192493 0.9999885264823571 -0.0047790274006015605 0.9999885264823571 -0.0047790274006015605 -1.5690993143501035e-06 -0.0003283264940192493
1467079.5054167397 -1.6028681297538545e-06 -0.000331840588118188 0.9999882795577644 -0.004830178708591693 0.9999882795577644 -0.004830178708591693 -1.6028681296428335e-06 -0.00033184058811818856
1482782.195843424 -1.6373636834686661e-06 -0.0003353922914523406 0.9999880273190515 -0.004881877495590427 0.9999880273190515 -0.004881877495590427 -1.6373636834686661e-06 -0.0003353922914523406
1498652.9579292932 -1.672601615512258e-06 -0.0003389820064566862 0.9999877696518513 -0.00493412962107006 0.9999877696518513 -0.00493412962107006 -1.672601615623279e-06 -0.00033898200645668565
1514693.590607011 -1.7085979024185192e-06 -0.0003426101398700302 0.9999875064393372 -0.00498694100720615 0.9999875064393372 -0.00498694100720615 -1.70859790252954e-06 -0.00034261013987002965
1530905.912063866 -1.74536886448007e-06 -0.00034627710278094834 0.9999872375621672 -0.005040317639548151 0.9999872375621672 -0.005040317639548151 -1.74536886448007e-06 -0.00034627710278094834
1547291.7599478844 -1.7829311730912676e-06 -0.0003499833106742322 0.9999869628984317 -0.005094265567697376 0.9999869628984317 -0.005094265567697376 -1.7829311730912676e-06 -0.0003499833106742322
1563852.991576101 -1.8213018586388104e-06 -0.000353729183477806 0.9999866823235969 -0.00514879090599203 0.9999866823235969 -0.00514879090599203 -1.8213018585277896e-06 -0.0003537291834778065
1580591.4841451098 -1.8604983177224945e-06 -0.0003575151456101712 0.999986395710449 -0.005203899834199755 0.999986395710449 -0.005203899834199755 -1.8604983177224945e-06 -0.0003575151456101712
1597509.134943816 -1.9005383217075913e-06 -0.00036134162602832314 0.9999861029290371 -0.005259598598217376 0.9999861029290371 -0.005259598598217376 -1.9005383215965706e-06 -0.0003613416260283237
1614607.8615685173 -1.9414400239483027e-06 -0.00036520905827620474 0.999985803846613 -0.0053158935107783 0.999985803846613 -0.0053158935107783 -1.9414400239483027e-06 -0.00036520905827620474
1631889.602140235 -1.98322196884971e-06 -0.00036911788053364987 0.9999854983275713 -0.005372790952167301 0.9999854983275713 -0.005372790952167301 -1.98322196884971e-06 -0.00036911788053364987
1649356.3155244247 -2.0259030996636523e-06 -0.0003730685356658674 0.9999851862333895 -0.005430297370943118 0.9999851862333895 -0.005430297370943118 -2.0259030996636523e-06 -0.0003730685356658674
1667009.981552984 -2.069502767353499e-06 -0.0003770614712734325 0.9999848674225624 -0.00548841928466858 0.9999848674225624 -0.00548841928466858 -2.069502767353499e-06 -0.0003770614712734325
1684852.6012486925 -2.114040739255246e-06 -0.00038109713974282273 0.9999845417505405 -0.005547163280648725 0.9999845417505405 -0.005547163280648725 -2.1140407393662664e-06 -0.0003810971397428221
1702886.1970519966 -2.1595372083713012e-06 -0.0003851759982974775 0.9999842090696633 -0.0056065360166766024 0.9999842090696633 -0.0056065360166766024 -2.1595372082602806e-06 -0.00038517599829747813
1721112.813050279 -2.2060128016359226e-06 -0.0003892985090494086 0.9999838692290924 -0.005666544221787234 0.9999838692290924 -0.005666544221787234 -2.206012801746943e-06 -0.00038929850904940793
1739534.515209526 -2.253488590653458e-06 -0.00039346513905134765 0.9999835220747432 -0.005727194697019438 0.9999835220747432 -0.005727194697019438 -2.253488590653458e-06 -0.00039346513905134765
1758153.3916085272 -2.301986099862308e-06 -0.000397676360349461 0.999983167449215 -0.005788494316185963 0.999983167449215 -0.005788494316185963 -2.301986099862308e-06 -0.000397676360349461
1776971.5526755452 -2.3515273171802598e-06 -0.00040193265003660937 0.9999828051917196 -0.005850450026651712 0.9999828051917196 -0.005850450026651712 -2.3515273171802598e-06 -0.00040193265003660937
1795991.1314275207 -2.402134703638489e-06 -0.00040623449030617294 0.999982435138009 -0.0059130688501203175 0.999982435138009 -0.0059130688501203175 -2.402134703638489e-06 -0.00040623449030617294
1815214.2837118718 -2.4538312036186935e-06 -0.00041058236850645966 0.9999820571202997 -0.005976357883429174 0.9999820571202997 -0.005976357883429174 -2.4538312036186935e-06 -0.00041058236850645966
1834643.1884508282 -2.5066402551980696e-06 -0.0004149767771956691 0.9999816709671981 -0.006040324299352819 0.9999816709671981 -0.006040324299352819 -2.50664025530909e-06 -0.00041497677719566845
1854280.0478884391 -2.5605858009958035e-06 -0.00041941821419745883 0.9999812765036215 -0.006104975347415079 0.9999812765036215 -0.006104975347415079 -2.5605858011068237e-06 -0.0004194182141974582
1874127.0878401643 -2.6156922988038457e-06 -0.0004239071826570808 0.9999808735507194 -0.006170318354709664 0.9999808735507194 -0.006170318354709664 -2.6156922986928255e-06 -0.00042390718265708147
1894186.5579451998 -2.671984732395851e-06 -0.0004284441910981289 0.9999804619257926 -0.0062363607267297535 0.9999804619257926 -0.0062363607267297535 -2.671984732395851e-06 -0.0004284441910981289
1914460.731921439 -2.7294886237401783e-06 -0.00043302975347986767 0.9999800414422098 -0.006303109948206201 0.9999800414422098 -0.006303109948206201 -2.729488623629158e-06 -0.0004330297534798683
1934951.9078232292 -2.7882300435138137e-06 -0.00043766438925518764 0.9999796119093226 -0.006370573583954909 0.9999796119093226 -0.006370573583954909 -2.7882300435138137e-06 -0.00043766438925518764
1955662.4083018198 -2.84823562380787e-06 -0.00044234862342915147 0.999979173132381 -0.00643875927973304 0.999979173132381 -0.00643875927973304 -2.84823562380787e-06 -0.00044234862342915147
1976594.5808686663 -2.909532569588734e-06 -0.0004470829866181831 0.9999787249124429 -0.0065076747631045645 0.9999787249124429 -0.0065076747631045645 -2.909532569588734e-06 -0.0004470829866181831
1997750.798161484 -2.9721486713623547e-06 -0.000451868015109857 0.9999782670462851 -0.006577327844314826 0.9999782670462851 -0.006577327844314826 -2.9721486712513345e-06 -0.0004518680151098578
2019133.4582132173 -3.036112317437951e-06 -0.0004567042509233477 0.9999777993263108 -0.0066477264171746694 0.9999777993263108 -0.0066477264171746694 -3.036112317437951e-06 -0.0004567042509233477
2040744.9847238201 -3.101452507295056e-06 -0.0004615922418704817 0.9999773215404555 -0.006718878459953772 0.9999773215404555 -0.006718878459953772 -3.1014525074060757e-06 -0.00046159224187048093
2062587.8273350145 -3.168198864506041e-06 -0.000466532541617469 0.9999768334720909 -0.006790792036283725 0.9999768334720909 -0.006790792036283725 -3.168198864395021e-06 -0.00046653254161746976
2084664.4619079186 -3.236381649608092e-06 -0.0004715257097472651 0.9999763348999271 -0.006863475296070535 0.9999763348999271 -0.006863475296070535 -3.236381649608092e-06 -0.0004715257097472651
2106977.3908037194 -3.3060317748740284e-06 -0.000476572311822598 0.9999758255979112 -0.006936936476417057 0.9999758255979112 -0.006936936476417057 -3.3060317748740284e-06 -0.000476572311822598
2129529.1431672755 -3.3771808174351554e-06 -0.00048167291944965914 0.9999753053351257 -0.00701118390255508 0.9999753053351257 -0.00701118390255508 -3.3771808175461747e-06 -0.0004816729194496584
2152322.27521383 -3.4498610342044184e-06 -0.00048682811034246403 0.9999747738756839 -0.007086225988787539 0.9999747738756839 -0.007086225988787539 -3.4498610342044184e-06 -0.00048682811034246403
2175359.3705187174 -3.5241053758305454e-06 -0.0004920384683878892 0.9999742309786225 -0.007162071239440572 0.9999742309786225 -0.007162071239440572 -3.5241053759415648e-06 -0.0004920384683878884
2198643.040310246 -3.5999475024657383e-06 -0.0004973045837114097 0.9999736763977923 -0.00723872824982595 0.9999736763977923 -0.00723872824982595 -3.5999475024657383e-06 -0.0004973045837114097
2222175.9237656393 -3.677421798133453e-06 -0.0005026270527435053 0.9999731098817469 -0.007316205707213523 0.9999731098817469 -0.007316205707213523 -3.677421798244472e-06 -0.0005026270527435044
2245960.6883102194 -3.75656338714546e-06 -0.0005080064782867807 0.9999725311736286 -0.00739451239181429 0.9999725311736286 -0.00739451239181429 -3.7565633872564795e-06 -0.0005080064782867798
2270000.029919739 -3.8374081494662685e-06 -0.0005134434695837972 0.999971940011052 -0.007473657177773755 0.999971940011052 -0.007473657177773755 -3.8374081494662685e-06 -0.0005134434695837972
2294296.67342596 -3.919992737085977e-06 -0.0005189386423855952 0.999971336125985 -0.007553649034175914 0.999971336125985 -0.007553649034175914 -3.919992736974958e-06 -0.000518938642385596
2318853.3728255183 -4.0043545906321474e-06 -0.0005244926190209685 0.999970719244627 -0.007634497026057995 0.999970719244627 -0.007634497026057995 -4.0043545906321474e-06 -0.0005244926190209685
2343672.9115920975 -4.090531956671894e-06 -0.000530106028466442 0.9999700890872858 -0.0077162103154360265 0.9999700890872858 -0.0077162103154360265 -4.090531956671894e-06 -0.000530106028466442
2368758.10299192 -4.1785639045462935e-06 -0.0005357795064169943 0.9999694453682488 -0.007798798162341222 0.9999694453682488 -0.007798798162341222 -4.1785639045462935e-06 -0.0005357795064169943
2394111.7904026164 -4.268490344410354e-06 -0.0005415136953575235 0.9999687877956559 -0.007882269925867479 0.9999687877956559 -0.007882269925867479 -4.268490344299335e-06 -0.0005415136953575244
2419736.847635549 -4.360352044987758e-06 -0.000547309244635068 0.9999681160713653 -0.007966635065230102 0.9999681160713653 -0.007966635065230102 -4.360352044987758e-06 -0.000547309244635068
2445636.1792615205 -4.454190652602631e-06 -0.0005531668105317669 0.9999674298908192 -0.008051903140835634 0.9999674298908192 -0.008051903140835634 -4.454190652602631e-06 -0.0005531668105317669
2471812.7209400395 -4.550048709498815e-06 -0.000559087056338618 0.9999667289429057 -0.008138083815363305 0.9999667289429057 -0.008138083815363305 -4.550048709498815e-06 -0.000559087056338618
2498269.439752036 -4.6479696733973396e-06 -0.0005650706524299705 0.9999660129098171 -0.008225186854857743 0.9999660129098171 -0.008225186854857743 -4.6479696733973396e-06 -0.0005650706524299705
2525009.3345362167 -4.747997937135967e-06 -0.0005711182763388385 0.9999652814669073 -0.008313222129833616 0.9999652814669073 -0.008313222129833616 -4.747997937135967e-06 -0.0005711182763388385
2552035.43622894 -4.850178848842864e-06 -0.0005772306128329645 0.9999645342825424 -0.008402199616391702 0.9999645342825424 -0.008402199616391702 -4.850178848731846e-06 -0.0005772306128329653
2579350.8082078067 -4.954558732154851e-06 -0.000583408353991717 0.9999637710179521 -0.008492129397347196 0.9999637710179521 -0.008492129397347196 -4.954558732265869e-06 -0.0005834083539917161
2606958.546638855 -5.061184908042923e-06 -0.0005896521992837549 0.9999629913270762 -0.008583021663369697 0.9999629913270762 -0.008583021663369697 -5.061184908042923e-06 -0.0005896521992837549
2634861.780827543 -5.1701057151468445e-06 -0.0005959628556455487 0.9999621948564064 -0.008674886714135611 0.9999621948564064 -0.008674886714135611 -5.1701057151468445e-06 -0.0005959628556455487
2663063.6735734143 -5.281370532568855e-06 -0.0006023410375606759 0.9999613812448267 -0.008767734959492573 0.9999613812448267 -0.008767734959492573 -5.281370532457837e-06 -0.0006023410375606767
2691567.421528637 -5.395029801640118e-06 -0.0006087874671399858 0.9999605501234503 -0.008861576920636518 0.9999605501234503 -0.008861576920636518 -5.395029801640118e-06 -0.0006087874671399858
2720376.2555603 -5.511135049389263e-06 -0.0006153028742025711 0.9999597011154511 -0.008956423231300983 0.9999597011154511 -0.008956423231300983 -5.511135049389263e-06 -0.0006153028742025711
2749493.4411166687 -5.629738911281565e-06 -0.000621887996357606 0.999958833835894 -0.009052284638959376 0.999958833835894 -0.009052284638959376 -5.629738911392583e-06 -0.0006218879963576049
2778922.2785972804 -5.750895155625765e-06 -0.0006285435790870277 0.9999579478915602 -0.009149172006039732 0.9999579478915602 -0.009149172006039732 -5.750895155625765e-06 -0.0006285435790870277
2808666.1037270804 -5.874658707328232e-06 -0.0006352703758290834 0.999957042880768 -0.00924709631115268 0.999957042880768 -0.00924709631115268 -5.874658707328232e-06 -0.0006352703758290834
2838728.28793448 -6.001085673336659e-06 -0.0006420691480627461 0.9999561183931921 -0.00934606865033218 0.9999561183931921 -0.00934606865033218 -6.001085673336659e-06 -0.0006420691480627461
2869112.23873355 -6.130233367842048e-06 -0.0006489406653930202 0.9999551740096759 -0.009446100238289732 0.9999551740096759 -0.009446100238289732 -6.13023336773103e-06 -0.0006489406653930213
2899821.400110211 -6.262160338026947e-06 -0.0006558857056371073 0.9999542093020435 -0.009547202409681672 0.9999542093020435 -0.009547202409681672 -6.262160338026947e-06 -0.0006558857056371073
2930859.252912653 -6.39692639114992e-06 -0.000662905054911511 0.9999532238329039 -0.009649386620390171 0.9999532238329039 -0.009649386620390171 -6.39692639114992e-06 -0.000662905054911511
