! Created with skrf 1.11.0 (http://scikit-rf.org).
# Hz S RI R 50.0 
!freq ReS11 ImS11 ReS21 ImS21 ReS12 ImS12 ReS22 ImS22
10000000.0 0.0003393065767287782 0.01048341668138924 0.9993327078150721 -0.03498745399035608 0.9993327078150721 -0.03498745399035608 0.0003946914888906872 0.010481477610396297
10085535.676775167 0.0003451324037235092 0.010572922705993039 0.9993212464262125 -0.03528655027398042 0.9993212464262125 -0.03528655027398042 0.00040146809774526716 0.01057093346348826
10171802.988750452 0.00035105819678846184 0.010663190069087877 0.999309588227383 -0.035588200467447054 0.999309588227383 -0.035588200467447054 0.0004083609814900176 0.01066114935716704
10258808.194017095 0.00035708566909724114 0.010754225172753205 0.9992977298407967 -0.035892426301228346 0.9992977298407967 -0.035892426301228346 0.0004153721325917143 0.010752131659946297
10346557.604195263 0.00036321656310822235 0.010846034470984466 0.9992856678307547 -0.03619924968870843 0.9992856678307546 -0.036199249688708426 0.00042250357756933683 0.010843886791388063
10435057.584892072 0.00036945265106271105 0.010938624470063923 0.9992733987026564 -0.036508692727671946 0.9992733987026564 -0.036508692727671946 0.00042975737757276267 0.010936421222451167
10524314.55616323 0.0003757957354910016 0.01103200172893247 0.9992609189019915 -0.036820777701802344 0.9992609189019915 -0.036820777701802344 0.0004371356289716276 0.011029741475840028
10614334.992978826 0.00038224764972790776 0.011126172859562836 0.9992482248133151 -0.03713552708219183 0.9992482248133151 -0.03713552708219183 0.0004446404639531489 0.011123854126354348
10705125.425693104 0.00038881025843545886 0.011221144527333976 0.9992353127592045 -0.03745296352886192 0.9992353127592045 -0.03745296352886192 0.0004522740511314846 0.011218765801239235
10796692.440518053 0.00039548545813618415 0.011316923451406507 0.9992221789992015 -0.037773109892294536 0.9992221789992014 -0.03777310989229453 0.00046003859616550397 0.011314483180535902
10889042.680001356 0.0004022751777536171 0.01141351640509948 0.9992088197287314 -0.03809598921497465 0.9992088197287314 -0.03809598921497465 0.0004679363423886972 0.011411012997432942
10982182.843508095 0.00040918137916313725 0.01151093021626795 0.9991952310780092 -0.038421624732943145 0.9991952310780092 -0.038421624732943145 0.0004759695714483509 0.011508362038617815
11076119.687706903 0.0004162060577514689 0.011609171767681867 0.9991814091109226 -0.03875003987736143 0.9991814091109226 -0.03875003987736143 0.00048414060395607583 0.011606537144628962
11170860.02705998 0.0004233512429855134 0.011708247997405717 0.9991673498238991 -0.03908125827608641 0.999167349823899 -0.039081258276086404 0.0004924518001492536 0.011705545210207943
11266410.73431748 0.00043061899899137694 0.011808165899179128 0.9991530491447523 -0.039415303755256856 0.9991530491447523 -0.039415303755256856 0.0005009055605629276 0.011805393184651932
11362778.741016166 0.000438011425142045 0.011908932522798598 0.9991385029315087 -0.039752200340891164 0.9991385029315087 -0.039752200340891164 0.000509504326714029 0.011906088072166475
11459971.037982073 0.0004455306566560009 0.012010554974499604 0.9991237069712149 -0.04009197226049525 0.9991237069712148 -0.04009197226049524 0.0005182505817959019 0.012007636932218001
11557994.675837833 0.000453178865204754 0.012113040417339993 0.9991086569787245 -0.040434643944682956 0.9991086569787245 -0.040434643944682956 0.0005271468513856416 0.012110046879886746
11656856.76551399 0.00046095825953204497 0.01221639607158358 0.9990933485954644 -0.040780240028806355 0.9990933485954644 -0.040780240028806355 0.0005361957041616842 0.012213325086219235
11756564.478764908 0.00046887108608153165 0.01232062921508481 0.9990777773881794 -0.04112878535459802 0.9990777773881794 -0.04112878535459802 0.0005453997526353245 0.012317478778580864
11857125.048689112 0.0004769196296366026 0.01242574718367386 0.9990619388476565 -0.04148030497182463 0.9990619388476565 -0.04148030497182463 0.0005547616538928196 0.012422515241008228
11958545.77025383 0.0004851062139701625 0.0125317573715421 0.9990458283874275 -0.041834824139951016 0.9990458283874275 -0.041834824139951016 0.0005642841103505755 0.012528441814560904
12060834.000824377 0.000493433202504899 0.012638667231628367 0.9990294413424482 -0.042192368329816564 0.9990294413424482 -0.042192368329816564 0.0005739698705233692 0.012635265897673158
12163997.160697699 0.0005019029989857784 0.012746484276005226 0.9990127729677563 -0.04255296322532181 0.9990127729677563 -0.04255296322532181 0.000583821729804134 0.012742994946504842
12268042.733640846 0.0005105180481624127 0.012855216076266012 0.9989958184371069 -0.04291663472512756 0.9989958184371069 -0.04291663472512756 0.0005938425312581573 0.012851636475292031
12372978.26743371 0.0005192808364835449 0.012964870263911613 0.9989785728415838 -0.043283408944364124 0.9989785728415838 -0.043283408944364124 0.0006040351664297216 0.012961198056696564
12478811.374416623 0.0005281938928032399 0.013075454530737819 0.998961031188188 -0.0436533122163527 0.998961031188188 -0.0436533122163527 0.0006144025761621021 0.01307168732215517
12585549.732042661 0.0005372597890985767 0.013186976629222684 0.9989431883984009 -0.044026371094338226 0.9989431883984009 -0.044026371094338226 0.0006249477514314861 0.013183111962227592
12693201.083434414 0.0005464811411986856 0.013299444372913628 0.9989250393067252 -0.04440261235323264 0.9989250393067252 -0.04440261235323264 0.0006356737341953239 0.013295479726943437
12801773.2379459 0.0005558606095275183 0.013412865636814918 0.9989065786591999 -0.04478206299137095 0.9989065786591999 -0.04478206299137095 0.0006465836182532751 0.013408798426148453
12911274.07172889 0.0005654008998574859 0.013527248357774545 0.9988878011118894 -0.04516475023227718 0.9988878011118896 -0.04516475023227719 0.0006576805501238727 0.013523075929849042
13021711.528304365 0.0005751047640761342 0.013642600534871133 0.9988687012293485 -0.045550701526442895 0.9988687012293485 -0.045550701526442895 0.0006689677299352966 0.013638320168555743
13133093.619138816 0.0005849750009656602 0.013758930229800482 0.9988492734830596 -0.04593994455311679 0.9988492734830596 -0.04593994455311679 0.0006804484123308333 0.01375453913362526
13245428.424225256 0.0005950144569955825 0.013876245567261442 0.9988295122498466 -0.046332507222105114 0.9988295122498466 -0.046332507222105114 0.0006921259073891063 0.013871740877600666
13358724.092669569 0.0006052260271277932 0.013994554735341612 0.9988094118102571 -0.046728417675584555 0.9988094118102571 -0.046728417675584555 0.0007040035815604062 0.013989933514550213
13472988.843281465 0.0006156126556359256 0.014113865985901974 0.9987889663469214 -0.04712770428992525 0.9987889663469214 -0.04712770428992525 0.0007160848586175025 0.014109125220403942
13588230.9651709 0.0006261773369375704 0.014234187634961199 0.9987681699428819 -0.0475303956775266 0.9987681699428819 -0.0475303956775266 0.0007283732206230088 0.014229324233288654
13704458.818349218 0.0006369231164407248 0.014355528063078759 0.9987470165798941 -0.04793652068866299 0.9987470165798941 -0.04793652068866299 0.000740872208912245 0.014350538853860497
13821680.83433568 0.000647853091404157 0.014477895715737177 0.9987255001366999 -0.04834610841334197 0.9987255001366999 -0.04834610841334197 0.0007535854250924868 0.014472777445635339
13939905.516769206 0.000658970411811642 0.014601299103723394 0.9987036143872704 -0.04875918818317362 0.9987036143872704 -0.04875918818317362 0.0007665165320591126 0.014596048435316897
14059141.44202505 0.0006702782812612714 0.014725746803508476 0.9986813529990194 -0.04917578957325036 0.9986813529990194 -0.04917578957325036 0.0007796692550278421 0.014720360313121924
14179397.259837192 0.0006817799578689996 0.01485124745762648 0.9986587095309872 -0.049595942404039514 0.9986587095309872 -0.049595942404039514 0.0007930473825845547 0.014845721633103073
14300681.693925604 0.0006934787551874872 0.014977809775051447 0.9986356774319931 -0.05001967674328567 0.9986356774319931 -0.05001967674328567 0.0008066547677519652 0.014972141013468518
14423003.542629192 0.0007053780431396143 0.01510544253157303 0.998612250038757 -0.05044702290792528 0.998612250038757 -0.05044702290792528 0.0008204953290744072 0.015099627136898648
14546371.679544134 0.0007174812489676908 0.015234154570170485 0.9985884205739889 -0.050878011466012465 0.9985884205739889 -0.050878011466012465 0.0008345730517201927 0.01522818875085967
14670795.054167397 0.00072979185819858 0.015363954801384316 0.9985641821444468 -0.05131267323865505 0.9985641821444466 -0.05131267323865504 0.0008488919886017537 0.015357834667913342
14796282.692546196 0.0007423134156239341 0.015494852203686587 0.99853952773896 -0.051751039301963134 0.99853952773896 -0.051751039301963134 0.0008634562615150873 0.015488573766023672
14922843.697932528 0.0007550495262977552 0.015626855823848367 0.9985144502264228 -0.052193140989007396 0.9985144502264228 -0.052193140989007396 0.0008782700622966059 0.015620414988859275
15050487.251443798 0.0007680038565486691 0.015759974777305452 0.9984889423537483 -0.05263900989178956 0.9984889423537482 -0.05263900989178955 0.0008933376540007562 0.01575336734609214
15179222.612728626 0.0007811801350107097 0.015894218248521167 0.9984629967437952 -0.05308867786322306 0.9984629967437952 -0.05308867786322306 0.0009086633720949936 0.015887439913691934
15309059.12063866 0.0007945821536695706 0.016029595491346683 0.9984366058932522 -0.05354217701912499 0.9984366058932521 -0.05354217701912498 0.0009242516256758176 0.016022641834215968
15440006.193906147 0.000808213768926887 0.016166115829378724 0.9984097621704924 -0.05399953974021943 0.9984097621704924 -0.05399953974021943 0.0009401068987038785 0.016158982317094776
15572073.331826968 0.0008220789026813295 0.016303788656313788 0.9983824578133881 -0.054460798674150185 0.9983824578133881 -0.054460798674150185 0.0009562337512598087 0.016296470638912326
15705270.114950005 0.0008361815434280854 0.016442623436299788 0.9983546849270903 -0.05492598673750613 0.9983546849270902 -0.05492598673750612 0.0009726368208200168 0.016435116143681795
15839606.20577191 0.0008505257473753517 0.016582629704283768 0.9983264354817706 -0.055395137117855514 0.9983264354817706 -0.055395137117855514 0.0009893208235541595 0.016574928243115412
15975091.34943816 0.0008651156395804671 0.01672381706635653 0.9982977013103241 -0.05586828327579192 0.9982977013103241 -0.05586828327579192 0.0010062905556424747 0.016715916416889305
16111735.374450091 0.0008799554151031054 0.016866195200093328 0.9982684741060358 -0.05634545894699085 0.9982684741060357 -0.05634545894699084 0.001023550894616043 0.016858090212902264
16249548.193377657 0.0008950493401783874 0.017009773854890498 0.9982387454202043 -0.0568266981442755 0.9982387454202043 -0.0568266981442755 0.0010411068007177158 0.017001459247528414
16388539.803578783 0.000910401753408405 0.017154562852298282 0.9982085066597298 -0.05731203515969473 0.9982085066597298 -0.05731203515969473 0.0010589633182859707 0.017146033205863855
16528720.287924336 0.0009260170669737146 0.017300572086348772 0.9981777490846573 -0.05780150456660915 0.9981777490846573 -0.05780150456660915 0.0010771255771605684 0.017291821841966315
16670099.81552984 0.0009418997678643018 0.01744781152387991 0.9981464638056813 -0.05829514122178966 0.9981464638056813 -0.05829514122178966 0.001095598794111391 0.017438834979088512
16812688.642492935 0.0009580544191299916 0.01759629120485402 0.9981146417816075 -0.058792980267523776 0.9981146417816075 -0.058792980267523776 0.0011143882742908617 0.017587082509903693
16956497.11263748 0.0009744856611524749 0.017746021242671745 0.9980822738167722 -0.05929505713373332 0.9980822738167722 -0.05929505713373332 0.00113349941270867 0.01773657439672435
17101535.65826404 0.0009911982129365221 0.017897011824480658 0.9980493505584179 -0.05980140754010193 0.9980493505584179 -0.05980140754010193 0.0011529376957317855 0.017887320671712958
17247814.80090643 0.0010081968734230679 0.018049273211477975 0.9980158624940253 -0.060312067498210775 0.9980158624940253 -0.060312067498210775 0.0011727087026076662 0.018039331437084485
17395345.15209526 0.001025486522823301 0.018202815739207998 0.9979817999486001 -0.06082707331368601 0.9979817999486 -0.060827073313686 0.00119281810701244 0.018192616865300985
17544137.41412747 0.001043072123973801 0.018357649817853063 0.9979471530819143 -0.06134646158835325 0.9979471530819143 -0.06134646158835325 0.0012132716786244135 0.018347187199256994
17694202.380842824 0.0010609587237148613 0.018513785932518362 0.997911911885703 -0.0618702692224032 0.997911911885703 -0.0618702692224032 0.0012340752847217133 0.01850305275245629
17845550.93840704 0.0010791514542893258 0.018671234643510375 0.9978760661808096 -0.06239853341656558 0.9978760661808095 -0.062398533416565566 0.0012552348918073437 0.018660223909179284
17998194.06610124 0.0010976555347653955 0.01883000658660783 0.9978396056142894 -0.0629312916742915 0.9978396056142893 -0.06293129167429148 0.0012767565672587957 0.018818711124640206
18152142.83711872 0.001116476272481373 0.018990112473326222 0.9978025196564595 -0.06346858180394588 0.9978025196564595 -0.06346858180394588 0.00129864648100524 0.018978524925134903
18307408.419367924 0.001135619064514435 0.01915156309117415 0.9977647975979019 -0.06401044192100663 0.9977647975979019 -0.06401044192100663 0.0013209109072306211 0.019139675908177542
18464002.07628293 0.001155089399172262 0.019314369303902564 0.9977264285464167 -0.0645569104502746 0.9977264285464167 -0.0645569104502746 0.0013435562261048845 0.01930217474262702
18621935.167640224 0.0011748928575089517 0.019478542051745144 0.9976874014239209 -0.06510802612808897 0.9976874014239211 -0.06510802612808898 0.0013665889255423148 0.01946603216880149
18781219.150382925 0.0011950351148650523 0.019644092351650915 0.9976477049633014 -0.06566382800455293 0.9976477049633014 -0.06566382800455293 0.0013900156029882365 0.01963125899858182
18941865.579451997 0.0012155219424325632 0.01981103129750777 0.9976073277052095 -0.06622435544576635 0.9976073277052095 -0.06622435544576635 0.0014138429672337926 0.01979786611550273
19103886.108624227 0.0012363592088442416 0.019979370060356823 0.9975662579948054 -0.06678964813606524 0.9975662579948056 -0.06678964813606525 0.0014380778402602263 0.019965864474831264
19267292.491357915 0.001257552881788865 0.020149119888597494 0.9975244839784465 -0.0673597460802701 0.9975244839784463 -0.06735974608027008 0.0014627271591119632 0.02013526510363265
19432096.581645254 0.0012791090296523616 0.020320292108182526 0.9974819936003221 -0.06793468960593976 0.9974819936003221 -0.06793468960593976 0.001487797977799159 0.02030607910082249
19598310.334872358 0.0013010338231839228 0.020492898122802933 0.9974387745990306 -0.06851451936563333 0.9974387745990306 -0.06851451936563333 0.001513297469231567 0.020478317637205107
19765945.808686662 0.00132333353718998 0.020666949414062413 0.9973948145040998 -0.06909927633917845 0.9973948145040998 -0.06909927633917845 0.0015392329271816051 0.02065199195549781
19935015.16387135 0.0013460145522541935 0.020842457541640422 0.9973501006324508 -0.06968900183594502 0.9973501006324508 -0.06968900183594502 0.0015656117682791633 0.020827113370339864
20105530.66522785 0.0013690833564845004 0.02101943414344435 0.9973046200848 -0.07028373749712667 0.9973046200847999 -0.07028373749712666 0.0015924415340381843 0.021003693268286584
20277504.682465263 0.0013925465472886677 0.02119789093574926 0.9972583597420049 -0.07088352529802609 0.9972583597420049 -0.07088352529802609 0.0016197298929141006 0.02118174310778711
20450949.691097848 0.0014164108331771424 0.021377839713325873 0.9972113062613454 -0.07148840755034717 0.9972113062613454 -0.07148840755034717 0.0016474846423944409 0.02136127441914618
20625878.273350142 0.0014406830355942993 0.021559292349555684 0.9971634460727462 -0.07209842690449243 0.9971634460727462 -0.07209842690449243 0.00167571371112223 0.021542298804468767
20802303.119069424 0.0014653700907787095 0.021742260796532714 0.9971147653749362 -0.07271362635186389 0.9971147653749362 -0.07271362635186389 0.0017044251610523354 0.021724827937587076
20980237.0266466 0.001490479051652834 0.02192675708515201 0.9970652501315408 -0.07333404922717036 0.997065250131541 -0.07333404922717038 0.0017336271896414616 0.02190887356396982
21159692.90394432 0.0015160170897417673 0.022112793325183556 0.9970148860671144 -0.07395973921073687 0.9970148860671144 -0.07395973921073687 0.0017633281320727134 0.022094447500612287
21340683.769233678 0.0015419914971225661 0.02230038170533215 0.9969636586631028 -0.0745907403308202 0.9969636586631027 -0.07459074033082018 0.001793536463514455 0.022281561635907735
21523222.7521383 0.0015684096884036492 0.022489534493281622 0.9969115531537411 -0.07522709696592557 0.9969115531537411 -0.07522709696592557 0.0018242608014144655 0.022470227929498286
21707323.09458694 0.0015952792027350044 0.02268026403572372 0.9968585545218832 -0.07586885384712794 0.9968585545218832 -0.07586885384712794 0.0018555099078298688 0.02266045841210559
21892998.15177421 0.0016226077058504036 0.02287258275837097 0.9968046474947619 -0.07651605606039613 0.9968046474947619 -0.07651605606039613 0.0018872926917924487 0.0228522651853404
22080261.393129114 0.001650402992140011 0.023066503165952257 0.9967498165396791 -0.07716874904891749 0.9967498165396791 -0.07716874904891749 0.001919618211711679 0.023045660421489658
22269126.403292503 0.0016786729867565527 0.023262037842191875 0.9966940458596238 -0.07782697861542666 0.9966940458596237 -0.07782697861542665 0.0019524956778136143 0.023240656363281827
22459606.883102193 0.0017074257477531437 0.023459199449769978 0.9966373193888202 -0.07849079092453363 0.9966373193888202 -0.07849079092453363 0.0019859344546180164 0.023437265323628085
22651716.65058723 0.0017366694682542081 0.023658000730265274 0.996579620788199 -0.07916023250505494 0.9965796207881988 -0.07916023250505493 0.0020199440634536578 0.023635499685340206
22845469.64196996 0.0017664124786602653 0.02385845450407804 0.9965209334407971 -0.07983535025234302 0.9965209334407971 -0.07983535025234302 0.002054534185011542 0.0238353719008231
23040879.912677154 0.0017966632488862536 0.024060573670333787 0.9964612404470797 -0.08051619143061742 0.9964612404470797 -0.08051619143061742 0.0020897146619376595 0.024036894491742077
23237961.638359774 0.0018274303906344494 0.02426437120676672 0.9964005246201846 -0.08120280367529512 0.9964005246201846 -0.08120280367529512 0.002125495501465056 0.02424008004866395
23436729.115920976 0.0018587226597015468 0.02446986016958168 0.996338768481091 -0.08189523499531857 0.9963387684810909 -0.08189523499531856 0.002161886878086405 0.02444494123067032
23637196.764553633 0.0018905489583220128 0.024677053693295082 0.996275954253706 -0.08259353377548447 0.996275954253706 -0.08259353377548447 0.0021988991362663665 0.024651490764943766
23839379.12678602 0.0019229183375462742 0.024885964990552876 0.9962120638598718 -0.0832977487787682 0.9962120638598717 -0.08329774877876818 0.0022365427931956778 0.02485974144632441
24043290.869536914 0.001955839999655354 0.025096607351925766 0.9961470789142911 -0.08400792914864678 0.9961470789142911 -0.08400792914864678 0.002274828541586639 0.025069706136837122
24248946.78517972 0.0019893233006121366 0.025308994145680788 0.9960809807193678 -0.08472412441141924 0.9960809807193678 -0.08472412441141924 0.002313767252510795 0.02528139776518837
24456361.792615205 0.002023377752549514 0.02552313881752771 0.9960137502599652 -0.08544638447852096 0.9960137502599652 -0.08544638447852096 0.002353369978279221 0.025494829326230765
24665550.93835417 0.002058013026296645 0.025739054890340868 0.995945368198076 -0.0861747596488363 0.995945368198076 -0.0861747596488363 0.002393647955365694 0.025710013880396104
24876529.39760862 0.0020932389539422436 0.02595675596385411 0.9958758148674063 -0.08690930061100341 0.9958758148674062 -0.0869093006110034 0.0024346126073742556 0.025926964553093974
