! Created with skrf 1.11.0 (http://scikit-rf.org).
# Hz S RI R 50.0 
!freq ReS11 ImS11 ReS21 ImS21 ReS12 ImS12 ReS22 ImS22
10000000.0 -0.0005561465440642521 -0.006105315997887269 0.998246657694031 -0.0588729668038184 0.9982466576940309 -0.05887296680381839 -0.00016535150606381105 -0.006128363671648025
10085535.676775167 -0.0005656928434880924 -0.006157178112284357 0.9982165402333443 -0.05937598802438956 0.9982165402333445 -0.05937598802438957 -0.00016819696581745185 -0.006180821990662489
10171802.988750452 -0.0005754028578354642 -0.006209474516411297 0.9981859055358271 -0.059883297566197674 0.9981859055358271 -0.059883297566197674 -0.00017109147315757676 -0.00623373001713896
10258808.194017095 -0.0005852793896108775 -0.006262208684044837 0.9981547447217906 -0.060394931739430946 0.9981547447217906 -0.060394931739430946 -0.00017403587633311017 -0.006287091623332591
10346557.604195263 -0.0005953252891138422 -0.006315384112446173 0.9981230487592183 -0.060910927155274595 0.9981230487592183 -0.060910927155274595 -0.00017703103836016505 -0.006340910715272147
10435057.584892072 -0.0006055434552485648 -0.006369004322400878 0.9980908084611586 -0.06143132072823819 0.9980908084611586 -0.06143132072823819 -0.00018007783728166325 -0.00639519123306531
10524314.55616323 -0.0006159368363460803 -0.006423072858255128 0.9980580144830696 -0.06195614967849495 0.9980580144830695 -0.06195614967849494 -0.00018317716643268732 -0.0064499371512069335
10614334.992978826 -0.0006265084310002815 -0.006477593287947854 0.9980246573201207 -0.06248545153423516 0.9980246573201207 -0.06248545153423516 -0.00018632993471041107 -0.006505152478890279
10705125.425693104 -0.0006372612889177239 -0.006532569203038989 0.9979907273044484 -0.0630192641340337 0.9979907273044486 -0.06301926413403372 -0.00018953706684907937 -0.006560841260321482
10796692.440518053 -0.0006481985117822485 -0.006588004218733282 0.9979562146023632 -0.06355762562922898 0.9979562146023632 -0.06355762562922898 -0.00019279950369924164 -0.006617007575037041
10889042.680001356 -0.000659323254133376 -0.006643901973899827 0.9979211092115107 -0.06410057448631723 0.9979211092115107 -0.06410057448631723 -0.00019611820251267493 -0.006673655538224478
10982182.843508095 -0.0006706387242588596 -0.006700266131087011 0.9978854009579835 -0.06464814948935811 0.9978854009579837 -0.06464814948935813 -0.00019949413723287617 -0.006730789301046123
11076119.687706903 -0.000682148185103514 -0.006757100376532829 0.9978490794933846 -0.0652003897423952 0.9978490794933846 -0.0652003897423952 -0.00020292829878940945 -0.006788413050966371
11170860.02705998 -0.0006938549551908699 -0.006814408420170242 0.9978121342918383 -0.06575733467188767 0.9978121342918386 -0.06575733467188768 -0.00020642169539980285 -0.006846531012081832
11266410.73431748 -0.0007057624095632131 -0.006872193995627422 0.9977745546469542 -0.06631902402915615 0.9977745546469544 -0.06631902402915617 -0.000209975352873854 -0.006905147445455135
11362778.741016166 -0.000717873980733785 -0.006930460860223138 0.9977363296687354 -0.06688549789284169 0.9977363296687356 -0.0668854978928417 -0.0002135903149269177 -0.00696426664945196
11459971.037982073 -0.0007301931596571081 -0.006989212794956174 0.9976974482804358 -0.06745679667137544 0.9976974482804358 -0.06745679667137544 -0.0002172676434964518 -0.0070238929600812275
11557994.675837833 -0.0007427234967149198 -0.007048453604489774 0.997657899215365 -0.0680329611054639 0.997657899215365 -0.0680329611054639 -0.0002210084190648972 -0.007084030751339223
11656856.76551399 -0.000755468602717313 -0.007108187117129892 0.9976176710136352 -0.06861403227058382 0.9976176710136352 -0.06861403227058382 -0.0002248137409894412 -0.007144684435556642
11756564.478764908 -0.0007684321499222057 -0.007168417184797671 0.9975767520188566 -0.06920005157949137 0.9975767520188565 -0.06920005157949136 -0.00022868472783608122 -0.00720585846374956
11857125.048689112 -0.000781617873069817 -0.007229147682995759 0.9975351303747745 -0.0697910607847434 0.9975351303747745 -0.0697910607847434 -0.00023262251772160323 -0.007267557325973699
11958545.77025383 -0.0007950295704355244 -0.007290382510768169 0.9974927940218481 -0.07038710198122944 0.997492794021848 -0.07038710198122942 -0.00023662826866048588 -0.007329785551682396
12060834.000824377 -0.000808671104899352 -0.007352125590653703 0.9974497306937733 -0.07098821760871775 0.9974497306937733 -0.07098821760871775 -0.00024070315891892648 -0.0073925477100882245
12163997.160697699 -0.0008225464050338184 -0.007414380868632452 0.9974059279139449 -0.0715944504544112 0.9974059279139449 -0.0715944504544112 -0.00024484838737457646 -0.007455848410528278
12268042.733640846 -0.0008366594662086284 -0.007477152314065369 0.9973613729918583 -0.07220584365551662 0.9973613729918586 -0.07220584365551663 -0.0002490651738839735 -0.0075196923028331255
12372978.26743371 -0.0008510143517146806 -0.007540443919626603 0.9973160530194515 -0.07282244070182431 0.9973160530194515 -0.07282244070182431 -0.0002533547596555685 -0.007584084077699695
12478811.374416623 -0.0008656151939052831 -0.0076042597012282356 0.9972699548673818 -0.07344428543829941 0.9972699548673818 -0.07344428543829941 -0.0002577184076308571 -0.007649028467067673
12585549.732042661 -0.0008804661953577268 -0.00766860369793756 0.997223065181243 -0.0740714220676852 0.9972230651812429 -0.07407142206768519 -0.0002621574028709737 -0.007714530244500261
12693201.083434414 -0.0008955716300519312 -0.007733479971886052 0.9971753703777146 -0.07470389515311544 0.9971753703777146 -0.07470389515311544 -0.0002666730529523044 -0.007780594225568228
12801773.2379459 -0.0009109358445705376 -0.007798892608170512 0.9971268566406479 -0.07534174962074015 0.9971268566406479 -0.07534174962074015 -0.0002712666883673837 -0.007847225268238594
12911274.07172889 -0.0009265632593170268 -0.00786484571474528 0.9970775099170843 -0.07598503076235928 0.9970775099170842 -0.07598503076235927 -0.00027593966293471483 -0.00791442827326667
13021711.528304365 -0.0009424583697544142 -0.007931343422306175 0.9970273159132061 -0.0766337842380685 0.997027315913206 -0.07663378423806849 -0.00028069335421562297 -0.007982208184592705
13133093.619138816 -0.0009586257476643564 -0.007998389884165059 0.9969762600902186 -0.07728805607891512 0.9969762600902186 -0.07728805607891512 -0.0002855291639386193 -0.00805056998974231
13245428.424225256 -0.0009750700424263686 -0.008065989276115224 0.9969243276601623 -0.07794789268956236 0.9969243276601623 -0.07794789268956236 -0.0002904485184320742 -0.00811951872023113
13358724.092669569 -0.0009917959823183679 -0.00813414579628724 0.9968715035816522 -0.07861334085096544 0.9968715035816522 -0.07861334085096544 -0.0002954528690645206 -0.008189059451973821
13472988.843281465 -0.0010088083758378378 -0.008202863664994748 0.9968177725555483 -0.0792844477230548 0.9968177725555482 -0.07928444772305479 -0.0003005436926936491 -0.00825919730569707
13588230.9651709 -0.0010261121130455998 -0.00827214712457032 0.9967631190205475 -0.07996126084743073 0.9967631190205475 -0.07996126084743073 -0.0003057224921226594 -0.008329937447357346
13704458.818349218 -0.001043712166930173 -0.008342000439190337 0.9967075271487056 -0.0806438281500648 0.9967075271487056 -0.0806438281500648 -0.0003109907965662659 -0.008401285088562402
13821680.83433568 -0.0010616135947946403 -0.008412427894689675 0.99665098084088 -0.081332197944011 0.99665098084088 -0.081332197944011 -0.0003163501621251829 -0.008473245486997832
13939905.516769206 -0.0010798215396673914 -0.008483433798364566 0.9965934637220951 -0.08202641893212545 0.996593463722095 -0.08202641893212544 -0.0003218021722680365 -0.008545823946857756
14059141.44202505 -0.0010983412317334936 -0.008555022478764414 0.9965349591368303 -0.0827265402097922 0.9965349591368303 -0.0827265402097922 -0.00032734843832454814 -0.008619025819280087
14179397.259837192 -0.0011171779897910547 -0.008627198285471526 0.996475450144228 -0.08343261126765943 0.996475450144228 -0.08343261126765943 -0.0003329905999861837 -0.008692856502786485
14300681.693925604 -0.001136337222730237 -0.00869996558886861 0.9964149195132184 -0.08414468199437992 0.9964149195132184 -0.08414468199437992 -0.00033873032581704324 -0.008767321443726819
14423003.542629192 -0.0011558244310369023 -0.008773328779893785 0.9963533497175628 -0.0848628026793606 0.9963533497175631 -0.08486280267936061 -0.0003445693137736746 -0.008842426136728535
14546371.679544134 -0.0011756452083191732 -0.00884729226978266 0.9962907229308142 -0.08558702401551826 0.9962907229308141 -0.08558702401551825 -0.00035050929173600145 -0.008918176125150622
14670795.054167397 -0.0011958052428607477 -0.008921860489796703 0.996227021021188 -0.0863173971020398 0.9962270210211879 -0.08631739710203978 -0.00035655201804605347 -0.00899457700154243
14796282.692546196 -0.0012163103191973868 -0.00899703789093843 0.9961622255463511 -0.08705397344715096 0.996162225546351 -0.08705397344715095 -0.00036269928205880656 -0.00907163440810761
14922843.697932528 -0.0012371663197193157 -0.009072828943651823 0.9960963177481185 -0.0877968049708875 0.9960963177481184 -0.08779680497088749 -0.00036895290470272867 -0.009149354037172541
15050487.251443798 -0.001258379226300101 -0.009149238137508581 0.9960292785470619 -0.088545944007874 0.9960292785470619 -0.088545944007874 -0.0003753147390503125 -0.009227741631660303
15179222.612728626 -0.0012799551219505006 -0.009226269980879089 0.9959610885370263 -0.08930144331010452 0.9959610885370261 -0.0893014433101045 -0.0003817866709004645 -0.009306802985569249
15309059.12063866 -0.0013019001924996908 -0.009303929000588115 0.9958917279795532 -0.09006335604972913 0.995891727979553 -0.09006335604972912 -0.00038837061937113443 -0.009386543944457117
15440006.193906147 -0.0013242207283034287 -0.00938221974155441 0.9958211767982116 -0.0908317358218441 0.9958211767982116 -0.0908317358218441 -0.0003950685375031323 -0.009466970405930133
15572073.331826968 -0.0013469231259783635 -0.009461146766414017 0.9957494145728282 -0.09160663664728254 0.9957494145728281 -0.09160663664728252 -0.0004018824128765311 -0.009548088320137297
15705270.114950005 -0.0013700138901662636 -0.009540714655126617 0.9956764205336252 -0.09238811297541133 0.9956764205336254 -0.09238811297541134 -0.00040881426823664407 -0.009629903690270345
15839606.20577191 -0.001393499635323878 -0.00962092800456464 0.9956021735552565 -0.09317621968692687 0.9956021735552565 -0.09317621968692687 -0.00041586616213434217 -0.00971242257306876
15975091.34943816 -0.0014173870875425136 -0.009701791428084342 0.99552665215074 -0.09397101209665325 0.99552665215074 -0.09397101209665325 -0.0004230401895773753 -0.009795651079330326
16111735.374450091 -0.0014416830863976924 -0.009783309555078645 0.9954498344652937 -0.09477254595634296 0.9954498344652939 -0.09477254595634299 -0.00043033848269304634 -0.009879595374427624
16249548.193377657 -0.0014663945868256963 -0.009865487030510876 0.9953716982700611 -0.09558087745747446 0.9953716982700611 -0.09558087745747446 -0.00043776321140590816 -0.009964261678829477
16388539.803578783 -0.0014915286610314388 -0.009948328514429209 0.9952922209557346 -0.09639606323405298 0.9952922209557348 -0.096396063234053 -0.0004453165841269671 -0.010049656268628544
16528720.287924336 -0.0015170925004269155 -0.010031838681460922 0.9952113795260685 -0.09721816036540713 0.9952113795260685 -0.09721816036540713 -0.00045300084845565085 -0.01013578547607464
16670099.81552984 -0.001543093417598634 -0.010116022220286134 0.9951291505912842 -0.09804722637898704 0.9951291505912842 -0.09804722637898704 -0.0004608182918969484 -0.010222655690113613
16812688.642492935 -0.0015695388483078154 -0.010200883833090304 0.9950455103613632 -0.09888331925315706 0.9950455103613632 -0.09888331925315706 -0.0004687712425905746 -0.010310273356932425
16956497.11263748 -0.001596436353521123 -0.010286428234994795 0.9949604346392255 -0.0997264974199874 0.9949604346392257 -0.09972649741998743 -0.0004768620700551642 -0.010398644980509946
17101535.65826404 -0.001623793621473299 -0.010372660153465421 0.9948738988137956 -0.10057681976804257 0.9948738988137955 -0.10057681976804256 -0.00048509318594692135 -0.010487777123174127
17247814.80090643 -0.0016516184697629734 -0.010459584327697231 0.9947858778529476 -0.10143434564516239 0.9947858778529476 -0.10143434564516239 -0.0004934670448319665 -0.010577676406164851
17395345.15209526 -0.0016799188474803009 -0.0105472055079763 0.9946963462963357 -0.10229913486124173 0.9946963462963356 -0.10229913486124172 -0.0005019861449748427 -0.010668349510203462
17544137.41412747 -0.001708702837368556 -0.010635528455016459 0.994605278248099 -0.10317124769100039 0.994605278248099 -0.10317124769100039 -0.0005106530291414327 -0.010759803176068082
17694202.380842824 -0.001737978658019485 -0.010724557939271382 0.9945126473694466 -0.10405074487674852 0.9945126473694466 -0.10405074487674852 -0.0005194702854175962 -0.010852044205175732
17845550.93840704 -0.0017677546661021182 -0.010814298740220805 0.9944184268711165 -0.10493768763114442 0.9944184268711165 -0.10493768763114442 -0.000528440548044446 -0.010945079460170658
17998194.06610124 -0.0017980393586274587 -0.010904755645629866 0.9943225895057068 -0.10583213763994109 0.9943225895057068 -0.10583213763994109 -0.0005375664982685861 -0.01103891586551909
18152142.83711872 -0.0018288413752473025 -0.0109959334507816 0.9942251075598787 -0.10673415706472723 0.9942251075598787 -0.10673415706472723 -0.0005468508652101121 -0.011133560408110836
18307408.419367924 -0.0018601695005889874 -0.011087836957681082 0.9941259528464265 -0.10764380854565336 0.9941259528464265 -0.10764380854565336 -0.0005562964267470995 -0.011229020137867255
18464002.07628293 -0.0018920326666263564 -0.011180470974231046 0.9940250966962167 -0.10856115520415108 0.9940250966962167 -0.10856115520415108 -0.000565906010417457 -0.011325302168356373
18621935.167640224 -0.0019244399550875384 -0.011273840313377359 0.9939225099499879 -0.10948626064563546 0.9939225099499879 -0.10948626064563546 -0.000575682494338024 -0.01142241367741436
18781219.150382925 -0.001957400599898913 -0.011367949792224585 0.9938181629500155 -0.11041918896219725 0.9938181629500153 -0.11041918896219724 -0.0005856288081427657 -0.011520361907774291
18941865.579451997 -0.0019909239896678146 -0.011462804231119894 0.993712025531635 -0.11136000473527975 0.993712025531635 -0.11136000473527975 -0.0005957479339381765 -0.011619154167701854
19103886.108624227 -0.002025019670202046 -0.01155840845270481 0.9936040670146226 -0.11230877303833833 0.9936040670146226 -0.11230877303833833 -0.0006060429072786802 -0.01171879783163787
19267292.491357915 -0.002059697347069193 -0.011654767280934135 0.993494256194431 -0.11326555943948621 0.9934942561944312 -0.11326555943948624 -0.0006165168181601681 -0.01181930034084854
19432096.581645254 -0.0020949668881936967 -0.011751885540060356 0.9933825613332783 -0.11423043000411905 0.9933825613332783 -0.11423043000411905 -0.0006271728120342579 -0.011920669204082157
19598310.334872358 -0.0021308383264944247 -0.011849768053583667 0.9932689501510867 -0.11520345129752295 0.9932689501510866 -0.11520345129752294 -0.0006380140908418634 -0.012022911998233908
19765945.808686662 -0.002167321862561908 -0.011948419643165818 0.9931533898162683 -0.11618469038746147 0.9931533898162683 -0.11618469038746147 -0.0006490439140675862 -0.01212603636901776
19935015.16387135 -0.002204427867375963 -0.012047845127507036 0.9930358469363586 -0.11717421484673939 0.9930358469363586 -0.11717421484673939 -0.0006602655998151586 -0.012230050031645802
20105530.66522785 -0.0022421668850648954 -0.01214804932118513 0.9929162875484906 -0.11817209275574637 0.9929162875484906 -0.11817209275574637 -0.0006716825259038878 -0.012334960771515389
20277504.682465263 -0.0022805496357055123 -0.012249037033455564 0.9927946771097091 -0.11917839270497298 0.992794677109709 -0.11917839270497296 -0.0006832981309876165 -0.01244077644490372
20450949.691097848 -0.0023195870181654255 -0.012350813067011671 0.9926709804871241 -0.12019318379750356 0.9926709804871243 -0.12019318379750359 -0.0006951159156959292 -0.012547504979670422
20625878.273350142 -0.0023592901129888023 -0.012453382216703621 0.9925451619478985 -0.12121653565148176 0.9925451619478985 -0.12121653565148176 -0.0007071394437973326 -0.012655154375968028
20802303.119069424 -0.0023996701853240617 -0.012556749268214982 0.9924171851490681 -0.12224851840254464 0.992417185149068 -0.12224851840254462 -0.0007193723433868164 -0.012763732706960016
20980237.0266466 -0.0024407386878951155 -0.01266091899669645 0.9922870131271891 -0.12328920270623059 0.9922870131271891 -0.12328920270623059 -0.0007318183080975734 -0.012873248119547381
21159692.90394432 -0.0024825072640181772 -0.012765896165354255 0.9921546082878177 -0.12433865974035159 0.9921546082878175 -0.12433865974035156 -0.0007444810983354464 -0.012983708835102963
21340683.769233678 -0.002524987750661633 -0.012871685523993466 0.9920199323948065 -0.1253969612073355 0.9920199323948065 -0.1253969612073355 -0.0007573645425401076 -0.013095123150214251
21523222.7521383 -0.002568192181552183 -0.012978291807513745 0.9918829465594293 -0.12646417933653023 0.9918829465594293 -0.12646417933653023 -0.0007704725384704395 -0.01320749943743429
21707323.09458694 -0.0026121327903252264 -0.013085719734357246 0.991743611229318 -0.12754038688647262 0.9917436112293178 -0.1275403868864726 -0.0007838090545175423 -0.013320846146040998
21892998.15177421 -0.002656822013723848 -0.013193974004906515 0.9916018861772182 -0.12862565714711974 0.9916018861772182 -0.12862565714711974 -0.000797378131041955 -0.01343517180280522
22080261.393129114 -0.002702272494841647 -0.013303059299831643 0.9914577304895569 -0.12972006394203628 0.9914577304895569 -0.12972006394203628 -0.0008111838817408851 -0.013550485012766835
22269126.403292503 -0.0027484970864153596 -0.013412980278385184 0.9913111025548174 -0.13082368163054406 0.9913111025548172 -0.13082368163054403 -0.0008252304950409267 -0.013666794460020172
22459606.883102193 -0.0027955088541631273 -0.01352374157664299 0.991161960051723 -0.1319365851098226 0.9911619600517229 -0.13193658510982256 -0.0008395222355210817 -0.013784108908507373
22651716.65058723 -0.0028433210801729 -0.01363534780569035 0.991010259937221 -0.13305884981696797 0.9910102599372209 -0.13305884981696794 -0.0008540634453633387 -0.013902437202821468
22845469.64196996 -0.002891947266338329 -0.013747803549750944 0.9908559584342702 -0.1341905517309991 0.9908559584342701 -0.13419055173099909 -0.0008688585458339929 -0.014021788269017529
23040879.912677154 -0.002941401137843681 -0.013861113364258106 0.9906990110194206 -0.1353317673748161 0.9906990110194204 -0.13533176737481606 -0.0008839120387958968 -0.014142171115433248
23237961.638359774 -0.0029916966467007497 -0.013975281773866014 0.99053937241019 -0.13648257381710635 0.99053937241019 -0.13648257381710635 -0.0008992285082496107 -0.014263594833518765
23436729.115920976 -0.003042847975332882 -0.014090313270399559 0.9903769965522297 -0.13764304867419247 0.9903769965522295 -0.13764304867419244 -0.0009148126219093958 -0.01438606859867492
23637196.764553633 -0.0030948695402125367 -0.01420621231074159 0.990211836606275 -0.13881327011182715 0.9902118366062749 -0.13881327011182712 -0.0009306691328093547 -0.014509601671101694
23839379.12678602 -0.00314777599554899 -0.014322983314654895 0.9900438449348828 -0.13999331684692465 0.9900438449348828 -0.13999331684692465 -0.0009468028809437099 -0.014634203396655169
24043290.869536914 -0.0032015822370268735 -0.01444063066253841 0.9898729730889462 -0.1411832681492324 0.9898729730889461 -0.14118326814923238 -0.0009632187949423025 -0.014759883207714094
24248946.78517972 -0.0032563034055996406 -0.014559158693114983 0.9896991717939848 -0.14238320384293837 0.9896991717939848 -0.14238320384293837 -0.0009799218937783366 -0.014886650624056414
24456361.792615205 -0.003311954891333051 -0.014678571701048991 0.9895223909362113 -0.14359320430820813 0.9895223909362112 -0.1435932043082081 -0.000996917288514257 -0.015014515253744375
