! Created with skrf 1.11.0 (http://scikit-rf.org).
# Hz S RI R 50.0 
!freq ReS11 ImS11 ReS21 ImS21 ReS12 ImS12 ReS22 ImS22
10000000.0 0.0006928466626691062 0.015591313733447599 0.9991595578610559 -0.03790262305522169 0.9991595578610557 -0.037902623055221685 0.0004903422782187415 0.015598995636993898
10085535.676775167 0.0007047403467350477 0.015724287148214125 0.9991451254165226 -0.03822654171025082 0.9991451254165226 -0.03822654171025082 0.0004987599823252058 0.015732167802176504
10171802.988750452 0.0007168380343405179 0.015858387927444473 0.9991304452469362 -0.038553223681478406 0.9991304452469362 -0.038553223681478406 0.0005073220791822259 0.015866472472883444
10258808.194017095 0.0007291432187786116 0.015993625454805736 0.9991155131042225 -0.03888269241531565 0.9991155131042225 -0.03888269241531565 0.0005160310416779958 0.016001919165716513
10346557.604195263 0.0007416594529589694 0.016130009187531644 0.9991003246675975 -0.03921497155382327 0.9991003246675975 -0.03921497155382327 0.0005248893849144579 0.01613851747427944
10435057.584892072 0.0007543903504174084 0.01626754865687944 0.9990848755423284 -0.03955008493625925 0.9990848755423284 -0.03955008493625925 0.0005338996669239933 0.016276277069723327
10524314.55616323 0.0007673395863435188 0.01640625346858564 0.9990691612584728 -0.03988805660063554 0.9990691612584727 -0.03988805660063553 0.0005430644893969347 0.016415207701293462
10614334.992978826 0.0007805108986254031 0.016546133303321525 0.9990531772695964 -0.04022891078528536 0.9990531772695964 -0.04022891078528536 0.0005523864984213081 0.0165553191968781
10705125.425693104 0.0007939080889109357 0.016687197917147813 0.9990369189514696 -0.040572671930440604 0.9990369189514696 -0.040572671930440604 0.0005618683852358534 0.016696621463558818
10796692.440518053 0.0008075350236877486 0.016829457141968096 0.9990203816007421 -0.04091936467981846 0.999020381600742 -0.04091936467981845 0.0005715128869945502 0.016839124488162157
10889042.680001356 0.0008213956353806976 0.016972920885981794 0.9990035604335941 -0.04126901388221899 0.9990035604335943 -0.041269013882219 0.0005813227875445167 0.016982838337813295
10982182.843508095 0.0008354939234675775 0.017117599134135367 0.998986450584366 -0.04162164459313185 0.9989864505843662 -0.041621644593131855 0.0005913009182168439 0.017127773160490512
11076119.687706903 0.0008498339556141887 0.017263501948572704 0.9989690471041641 -0.04197728207635365 0.9989690471041641 -0.04197728207635365 0.0006014501586299277 0.017273939185581625
11170860.02705998 0.0008644198688265532 0.01741063946908367 0.9989513449594432 -0.04233595180561469 0.998951344959443 -0.04233595180561468 0.0006117734375078733 0.017421346724441136
11266410.73431748 0.000879255870624684 0.01755902191355129 0.9989333390305649 -0.042697679466215915 0.9989333390305648 -0.04269767946621591 0.0006222737335101881 0.017570006170948994
11362778.741016166 0.0008943462402338337 0.01770865957839728 0.998915024110332 -0.04306249095667624 0.998915024110332 -0.04306249095667624 0.0006329540760773485 0.017719928002070416
11459971.037982073 0.0009096953297963138 0.017859562839025147 0.9988963949024977 -0.04343041239038856 0.9988963949024977 -0.04343041239038856 0.000643817546289579 0.01787112277841633
11557994.675837833 0.0009253075656038626 0.018011742150261998 0.9988774460202503 -0.04380147009728724 0.9988774460202503 -0.04380147009728724 0.0006548672777396129 0.018023601144805508
11656856.76551399 0.0009411874493499916 0.018165208046797332 0.9988581719846716 -0.04417569062552395 0.9988581719846716 -0.04417569062552395 0.000666106457420323 0.018177373830826814
11756564.478764908 0.0009573395594027874 0.018319971143619922 0.99883856722317 -0.04455310074315427 0.99883856722317 -0.04455310074315427 0.0006775383266274865 0.01833245165140263
11857125.048689112 0.0009737685520993529 0.01847604213645207 0.998818626067887 -0.044933727439834203 0.9988186260678872 -0.04493372743983421 0.0006891661818770043 0.018488845507353
11958545.77025383 0.0009904791630619086 0.018633431802180713 0.9987983427540764 -0.04531759792852537 0.9987983427540764 -0.04531759792852537 0.0007009933758370536 0.018646566385959962
12060834.000824377 0.0010074762085348144 0.018792150999286085 0.9987777114184566 -0.045704739647211425 0.9987777114184566 -0.045704739647211425 0.0007130233182766661 0.018805625361532817
12163997.160697699 0.0010247645867442513 0.018952210668266724 0.9987567260975359 -0.046095180260622676 0.9987567260975357 -0.04609518026062267 0.0007252594770293876 0.01896603359597328
12268042.733640846 0.0010423492792808419 0.01911362183206156 0.9987353807259075 -0.04648894766197172 0.9987353807259075 -0.04648894766197172 0.000737705378972534 0.019127802339341356
12372978.26743371 0.0010602353525040326 0.019276395596468106 0.998713669134519 -0.04688606997469756 0.998713669134519 -0.04688606997469756 0.0007503646110236607 0.019290942930420937
12478811.374416623 0.0010784279589703667 0.019440543150556933 0.9986915850489098 -0.04728657555421979 0.9986915850489098 -0.04728657555421979 0.0007632408211528411 0.019455466797285565
12585549.732042661 0.0010969323388853988 0.01960607576708244 0.9986691220874202 -0.04769049298970261 0.9986691220874202 -0.04769049298970261 0.0007763377194116393 0.0196213854578643
12693201.083434414 0.0011157538215791588 0.019773004802888797 0.9986462737593709 -0.04809785110582718 0.9986462737593709 -0.04809785110582718 0.0007896590789793645 0.01978871052050682
12801773.2379459 0.0011348978270063687 0.019941341699312158 0.9986230334632111 -0.0485086789645748 0.998623033463211 -0.048508678964574795 0.0008032087372262841 0.01995745368454887
12911274.07172889 0.0011543698672704873 0.020111097982577476 0.9985993944846356 -0.04892300586701792 0.9985993944846355 -0.048923005867017914 0.0008169905967951065 0.020127626740876387
13021711.528304365 0.0011741755481742338 0.020282285264190816 0.9985753499946707 -0.04934086135512138 0.9985753499946705 -0.04934086135512137 0.0008310086266989765 0.0202992415724897
13133093.619138816 0.0011943205707941427 0.020454915241326428 0.9985508930477279 -0.04976227521355281 0.9985508930477279 -0.04976227521355281 0.0008452668634389879 0.02047231015506658
13245428.424225256 0.0012148107330818433 0.02062899969720803 0.9985260165796253 -0.050187277471501084 0.9985260165796253 -0.050187277471501084 0.0008597694121391647 0.020646844557524274
13358724.092669569 0.0012356519314915874 0.020804550501484845 0.9985007134055741 -0.05061589840450524 0.9985007134055741 -0.05061589840450524 0.0008745204477002357 0.02082285694258082
13472988.843281465 0.001256850162634087 0.020981579610601046 0.998474976218134 -0.05104816853629071 0.9984749762181339 -0.051048168536290704 0.0008895242159726188 0.02100035956731458
13588230.9651709 0.0012784115249576287 0.021160099068159507 0.9984487975851327 -0.051484118640616 0.9984487975851327 -0.051484118640616 0.000904785034948615 0.021179364783722916
13704458.818349218 0.0013003422204565188 0.021340121005278462 0.9984221699475514 -0.05192377974312653 0.9984221699475512 -0.051923779743126515 0.0009203072959742228 0.021359885039278777
13821680.83433568 0.0013226485564082448 0.02152165764094143 0.998395085617373 -0.05236718312321795 0.9983950856173729 -0.05236718312321794 0.0009360954649801067 0.021541932877485837
13939905.516769206 0.0013453369471378624 0.02170472128234024 0.9983675367753982 -0.052814360315908276 0.9983675367753982 -0.052814360315908276 0.0009521540837339127 0.021725520938431747
14059141.44202505 0.0013684139158117701 0.021889324325209774 0.9983395154690208 -0.053265343113716924 0.9983395154690207 -0.05326534311371692 0.0009684877711123579 0.02191066195933873
14179397.259837192 0.001391886096261283 0.022075479254155796 0.9983110136099683 -0.05372016356855389 0.9983110136099683 -0.05372016356855389 0.0009851012243937587 0.022097368775112713
14300681.693925604 0.0014157602348346381 0.022263198642973672 0.9982820229720053 -0.054178853993615335 0.9982820229720055 -0.05417885399361535 0.001001999220572764 0.022285654318888987
14423003.542629192 0.0014400431922802872 0.022452495154959177 0.9982525351885967 -0.054641446965288255 0.9982525351885967 -0.054641446965288255 0.0010191866176955321 0.022475531622575883
14546371.679544134 0.0014647419456604498 0.022643381543210217 0.9982225417505325 -0.05510797532506288 0.9982225417505324 -0.055107975325062876 0.0010366683562170172 0.022667013817395283
14670795.054167397 0.0014898635902952193 0.022835870650918945 0.9981920340035141 -0.055578472181451864 0.9981920340035141 -0.055578472181451864 0.0010544494603808045 0.022860114134419608
14796282.692546196 0.0015154153417392259 0.02302997541165482 0.9981610031456989 -0.056052970911918465 0.9981610031456989 -0.056052970911918465 0.0010725350396205455 0.023054845905106165
14922843.697932528 0.0015414045377894253 0.023225708849636942 0.9981294402252063 -0.05653150516481062 0.9981294402252066 -0.05653150516481063 0.0010909302899849232 0.023251222561827045
15050487.251443798 0.0015678386405262364 0.02342308407999659 0.9980973361375783 -0.05701410886130361 0.9980973361375786 -0.057014108861303626 0.0011096404955850897 0.023449257638396028
15179222.612728626 0.001594725238386774 0.02362211430902828 0.998064681623202 -0.05750081619734845 0.998064681623202 -0.05750081619734845 0.0011286710300663545 0.023648964770590596
15309059.12063866 0.0016220720482718676 0.023822812834429885 0.9980314672646874 -0.05799166164562807 0.9980314672646876 -0.057991661645628086 0.0011480273581035262 0.02385035769667004
15440006.193906147 0.001649886917688355 0.0240251930455312 0.9979976834842006 -0.05848667995752029 0.9979976834842006 -0.05848667995752029 0.0011677150369192328 0.024053450257889256
15572073.331826968 0.0016781778269235816 0.02422926842350959 0.9979633205407547 -0.05898590616506585 0.9979633205407547 -0.05898590616506585 0.001187739717828953 0.02425825639900668
15705270.114950005 0.0017069528912568314 0.024435052541594036 0.997928368527455 -0.059489375582944946 0.9979283685274549 -0.05948937558294494 0.0012081071478093268 0.02446479016878835
15839606.20577191 0.001736220363205433 0.02464255906525503 0.9978928173686985 -0.059997123810457506 0.9978928173686985 -0.059997123810457506 0.0012288231710924269 0.024673065720505392
15975091.34943816 0.0017659886348074408 0.024851801752381535 0.9978566568173262 -0.060509186733510814 0.9978566568173264 -0.06050918673351083 0.0012498937307853797 0.024883097312426487
16111735.374450091 0.0017962662399403516 0.02506279445344381 0.9978198764517302 -0.06102560052661273 0.9978198764517302 -0.06102560052661273 0.0012713248705166311 0.025094899308304247
16249548.193377657 0.001827061856677351 0.025275551111641096 0.9977824656729102 -0.06154640165486888 0.9977824656729102 -0.06154640165486888 0.0012931227361081864 0.025308486177854788
16388539.803578783 0.0018583843096812863 0.025490085763034888 0.9977444137014844 -0.06207162687598692 0.9977444137014844 -0.06207162687598692 0.0013152935772748507 0.025523872497231353
16528720.287924336 0.0018902425726369664 0.025706412536665703 0.9977057095746485 -0.0626013132422838 0.9977057095746485 -0.0626013132422838 0.0013378437493504725 0.025741072949490212
16670099.81552984 0.001922645770721592 0.0259245456546545 0.9976663421430855 -0.0631354981026992 0.9976663421430855 -0.0631354981026992 0.0013607797150427057 0.02596010232505002
16812688.642492935 0.0019556031831158577 0.026144499432286347 0.9976263000678248 -0.06367421910481197 0.9976263000678247 -0.06367421910481195 0.0013841080462143583 0.026180975522142765
16956497.11263748 0.001989124245553294 0.026366288278077358 0.9975855718170491 -0.0642175141968614 0.9975855718170491 -0.0642175141968614 0.0014078354256950533 0.026403707547257176
17101535.65826404 0.002023218552912118 0.026589926693823422 0.9975441456628483 -0.06476542162977236 0.9975441456628483 -0.06476542162977236 0.0014319686491197784 0.026628313515573786
17247814.80090643 0.0020578958618465196 0.02681542927462992 0.9975020096779208 -0.06531797995918263 0.9975020096779208 -0.06531797995918263 0.0014565146267983056 0.026854808651390664
17395345.15209526 0.0020931660934603398 0.02704281070892293 0.9974591517322199 -0.06587522804747528 0.9974591517322199 -0.06587522804747528 0.0014814803856138515 0.027083208288540897
17544137.41412747 0.0021290393360231235 0.02727208577843956 0.9974155594895451 -0.06643720506581169 0.9974155594895451 -0.06643720506581169 0.0015068730709515913 0.027313527870799482
17694202.380842824 0.0021655258477291718 0.02750326935819835 0.9973712204040782 -0.0670039504961685 0.9973712204040782 -0.0670039504961685 0.0015326999486578372 0.027545782952281092
17845550.93840704 0.0022026360594993772 0.02773637641644834 0.9973261217168606 -0.0675755041333766 0.9973261217168606 -0.0675755041333766 0.0015589684070309638 0.027779989197827235
17998194.06610124 0.002240380577828199 0.02797142201459548 0.997280250452216 -0.06815190608716039 0.997280250452216 -0.06815190608716039 0.001585685958842639 0.02801616238338213
18152142.83711872 0.0022787701876746318 0.028208421307107254 0.9972335934141106 -0.06873319678418038 0.9972335934141106 -0.06873319678418038 0.0016128602433919618 0.028254318396358155
18307408.419367924 0.0023178158553986456 0.02844738954139277 0.9971861371824569 -0.06931941697007483 0.9971861371824569 -0.06931941697007483 0.0016404990285916242 0.02849447323598859
18464002.07628293 0.002357528731744235 0.02868834205765965 0.9971378681093552 -0.06991060771150365 0.9971378681093552 -0.06991060771150365 0.0016686102130865613 0.028736643013669263
18621935.167640224 0.002397920154868049 0.028931294288744885 0.997088772315275 -0.0705068103981907 0.997088772315275 -0.0705068103981907 0.001697201828406696 0.028980843953286418
18781219.150382925 0.002439001653416432 0.029176261759920403 0.9970388356851726 -0.07110806674496709 0.9970388356851726 -0.07110806674496709 0.001726282041152496 0.029227092391532143
18941865.579451997 0.002480784949649627 0.02942326008867199 0.9969880438645458 -0.07171441879381354 0.9969880438645458 -0.07171441879381354 0.0017558591552155219 0.02947540477820605
19103886.108624227 0.0025232819626147987 0.029672304984450087 0.9969363822554255 -0.07232590891590034 0.9969363822554255 -0.07232590891590034 0.0017859416140332909 0.029725797676502186
19267292.491357915 0.0025665048113684315 0.029923412248392917 0.9968838360123001 -0.07294257981362749 0.9968838360123001 -0.07294257981362749 0.0018165380028794427 0.029978287763282
19432096.581645254 0.0026104658182485438 0.03017659777301959 0.9968303900379754 -0.07356447452266077 0.9968303900379754 -0.07356447452266077 0.0018476570511894363 0.030232891829331258
19598310.334872358 0.002655177512197314 0.03043187754189328 0.9967760289793649 -0.07419163641396623 0.9967760289793648 -0.07419163641396621 0.0018793076349227088 0.03048962677960142
19765945.808686662 0.0027006526321351598 0.030689267629253496 0.996720737223215 -0.07482410919584175 0.996720737223215 -0.07482410919584175 0.0019114987789613398 0.03074850963343483
19935015.16387135 0.002746904130387279 0.030948784199615362 0.9966644988917577 -0.07546193691594325 0.9966644988917575 -0.07546193691594323 0.0019442396595451478 0.031009557524772132
20105530.66522785 0.002793945176161521 0.03121044350733667 0.9966072978382939 -0.07610516396330853 0.9966072978382938 -0.07610516396330852 0.0019775396067459672 0.031272787702342764
20277504.682465263 0.002841789159080766 0.03147426189614989 0.9965491176427069 -0.0767538350703745 0.9965491176427069 -0.0767538350703745 0.002011408106978663 0.03153821752983643
20450949.691097848 0.002890449692769095 0.03174025579865942 0.9964899416069004 -0.07740799531499004 0.9964899416069004 -0.07740799531499004 0.0020458548055511823 0.03180586448605611
20625878.273350142 0.0029399406184920044 0.032008441735802716 0.9964297527501649 -0.07806769012242278 0.9964297527501649 -0.07806769012242278 0.002080889509254468 0.032075746165051426
20802303.119069424 0.002990276008853291 0.0322788363162731 0.996368533804469 -0.0787329652673578 0.996368533804469 -0.0787329652673578 0.002116522188990593 0.03234788027623117
20980237.0266466 0.003041470171546529 0.032551456235905114 0.9963062672096736 -0.07940386687589104 0.9963062672096736 -0.07940386687589104 0.0021527629824429338 0.03262228464445549
21159692.90394432 0.003093537653164921 0.03282631827701903 0.9962429351086707 -0.08008044142751235 0.9962429351086709 -0.08008044142751236 0.002189622196785235 0.032898977210105616
21340683.769233678 0.0031464932430679397 0.033103439307725614 0.9961785193424433 -0.0807627357570823 0.9961785193424433 -0.0807627357570823 0.0022271103114330127 0.033177976029131945
21523222.7521383 0.003200351977305472 0.03338283628118752 0.9961130014450454 -0.08145079705679706 0.9961130014450454 -0.08145079705679706 0.0022652379808371865 0.03345929927307781
21707323.09458694 0.0032551291426034397 0.033664526234838045 0.9960463626385028 -0.08214467287814463 0.9960463626385028 -0.08214467287814463 0.0023040160373177655 0.033742965229080095
21892998.15177421 0.003310840280406202 0.03394852628955536 0.9959785838276297 -0.0828444111338505 0.9959785838276297 -0.0828444111338505 0.002343455493943366 0.034028992299844824
22080261.393129114 0.0033675011909814843 0.03423485364878963 0.9959096455947662 -0.08355006009980971 0.9959096455947662 -0.08355006009980971 0.002383567547451764 0.034317399003596434
22269126.403292503 0.003425127937585669 0.03452352559764423 0.9958395281944284 -0.08426166841700872 0.9958395281944284 -0.08426166841700872 0.002424363581215574 0.034608203974001626
22459606.883102193 0.0034837368506913206 0.03481455950190677 0.9957682115478745 -0.08497928509343176 0.9957682115478744 -0.08497928509343175 0.0024658551682517175 0.0349014259600647
22651716.65058723 0.0035433445322774174 0.035107972807031144 0.9956956752375834 -0.08570295950595533 0.9956956752375834 -0.08570295950595533 0.0025080540742762167 0.03519708382599566
22845469.64196996 0.003603967860182349 0.03540378303706697 0.9956218985016466 -0.0864327414022252 0.9956218985016466 -0.0864327414022252 0.00255097226080482 0.03549519655104818
23040879.912677154 0.003665623992522448 0.0357020077935363 0.9955468602280712 -0.08716868090251935 0.9955468602280712 -0.08716868090251935 0.0025946218882985654 0.03579578322932807
23237961.638359774 0.0037283303721736814 0.03600266475425604 0.9954705389489895 -0.08791082850159397 0.9954705389489897 -0.08791082850159398 0.0026390153193577718 0.03609886306957074
23436729.115920976 0.003792104731320484 0.036305771672103075 0.9953929128347818 -0.08865923507050982 0.995392912834782 -0.08865923507050984 0.0026841651219613755 0.03640445539488582
23637196.764553633 0.0038569650960704983 0.03661134637372262 0.9953139596881013 -0.08941395185844281 0.9953139596881013 -0.08941395185844281 0.0027300840727549278 0.0367125796424698
23839379.12678602 0.003922929791135799 0.036919406758176114 0.9952336569378063 -0.0901750304944715 0.9952336569378063 -0.0901750304944715 0.0027767851603870833 0.037023255363283415
24043290.869536914 0.00399001744458299 0.03722997079552853 0.9951519816327998 -0.0909425229893467 0.9951519816327998 -0.0909425229893467 0.00282428158889423 0.037336502221694746
24248946.78517972 0.004058246992651101 0.03754305652537261 0.995068910435766 -0.09171648173723786 0.995068910435766 -0.09171648173723786 0.002872586781135233 0.037652339995085715
24456361.792615205 0.0041276376846396306 0.03785868205528774 0.9949844196168134 -0.09249695951745601 0.9949844196168134 -0.09249695951745601 0.0029217143822751444 0.037970788573420886
24665550.93835417 0.004198209087865852 0.03817686555923341 0.9948984850470162 -0.09328400949615462 0.9948984850470162 -0.09328400949615462 0.002971678263320577 0.03829186795877852
24876529.39760862 0.004269981092693568 0.038497625275872804 0.9948110821918538 -0.09407768522800268 0.994811082191854 -0.09407768522800271 0.0030224925247050592 0.0386155982648409
